(1771642807.238517) can0 00000251#6441000000000000
(1771642807.258172) can0 0757F80B#0110100002030000
(1771642807.266282) can0 00000252#0542CF0EDA000000
(1771642807.269483) can0 00000461#010AC8300700003B
(1771642807.297294) can0 00000132#00000047A0DA0700
(1771642807.298632) can0 00000212#CF0EDA002D000000
(1771642807.339232) can0 00000172#0006000000000000
(1771642807.340655) can0 00000172#0106000000000000
(1771642807.393991) can0 00000321#00000000000C306C
(1771642807.397836) can0 00000331#D0471F1E380000A4
(1771642807.399620) can0 00000322#00000000000C306C
(1771642807.400930) can0 000001A1#5A00E70400000188
(1771642807.401854) can0 00000332#D0471F1E380000A4
(1771642807.411209) can0 000001A2#5A001B0500000208
(1771642807.421711) can0 00000171#0006000000000000
(1771642807.423079) can0 00000171#0106000000000000
(1771642807.424405) can0 000001B1#000007009242E700
(1771642807.435675) can0 00000131#0000009243770700
(1771642807.437060) can0 00000211#0000000000000000
(1771642807.502181) can0 00000132#00000049A5DA0700
(1771642807.503538) can0 00000212#0000000000000000
(1771642807.514263) can0 00000462#020E88D8000000F3
(1771642807.550937) can0 0757F803#0110100001010000
(1771642807.578675) can0 00000461#010E8838070000E7
(1771642807.630945) can0 06080F81#1000000200000000
(1771642807.632388) can0 060F8009#41F0000200000000
(1771642807.633420) can0 06081F82#1000000200000000
(1771642807.634923) can0 060F801A#41F0000200000000
(1771642807.636761) can0 06080F81#0300003000010000
(1771642807.638262) can0 060F8009#42F0003000010000
(1771642807.639231) can0 06081F82#0300003000010000
(1771642807.640579) can0 00000251#6441000000000000
(1771642807.641730) can0 060F801A#42F0003000010000
(1771642807.642865) can0 00000131#0000009247770700
(1771642807.644227) can0 00000211#0000000000000000
(1771642807.653188) can0 0757F80B#0110100002030000
(1771642807.658753) can0 00000321#00000000006C3099
(1771642807.660464) can0 00000322#00000000006C3099
(1771642807.662140) can0 00000332#D0471F1E3B000019
(1771642807.665172) can0 000001A2#5A001C0500000221
(1771642807.676193) can0 00000252#6442000000000000
(1771642807.686917) can0 06081F82#1000004300000000
(1771642807.688381) can0 060F801A#42F0004300020003
(1771642807.689364) can0 06080F81#1000004300000000
(1771642807.691077) can0 060F8009#42F0004300010001
(1771642807.707140) can0 00000282#06020088C9B3793F
(1771642807.708439) can0 00000282#0602016800000000
(1771642807.709739) can0 00000242#06020088C9B3793F
(1771642807.711122) can0 00000242#0602016800000000
(1771642807.712615) can0 00000132#0000004BAEDA0700
(1771642807.714054) can0 00000212#0000000000000000
(1771642807.737536) can0 06080F81#1000004000000000
(1771642807.739022) can0 060F8009#42F0004000400000
(1771642807.740028) can0 06081F82#1000004000000000
(1771642807.741527) can0 060F801A#42F0004000400000
(1771642807.785152) can0 000001B2#060607004BB01C00
(1771642807.787995) can0 06081F82#1000000100000000
(1771642807.789465) can0 060F801A#41F000014088B800
(1771642807.790471) can0 06080F81#1000000100000000
(1771642807.791928) can0 060F8009#41F000014054F000
(1771642807.816194) can0 00000462#020E88E0000000EA
(1771642807.845734) can0 00000131#0000009349780700
(1771642807.847134) can0 00000211#0000000000000000
(1771642807.878779) can0 00000461#010E8838070000E7
(1771642807.907278) can0 00000132#0000004BB2DA0700
(1771642807.908693) can0 00000212#0000000000000000
(1771642807.915850) can0 00000321#0700000000CC3092
(1771642807.917521) can0 00000322#0900000000CC30B4
(1771642807.945901) can0 0757F803#0110100001010000
(1771642807.999572) can0 00000231#1027D00758020000
(1771642808.000901) can0 00000221#2300000000644100
(1771642808.002272) can0 00000201#1027D00758020000
(1771642808.043545) can0 00000251#6441000000000000
(1771642808.048161) can0 0757F80B#0110100002030000
(1771642808.054526) can0 00000131#0000009450780700
(1771642808.055926) can0 00000211#0000000023000000
(1771642808.080259) can0 00000252#0542000000000000
(1771642808.111252) can0 00000132#0000004CB5DB0700
(1771642808.112603) can0 00000212#000000002D000000
(1771642808.123254) can0 00000462#020E88E0000000EA
(1771642808.186511) can0 00000461#010E8838070000E7
(1771642808.214197) can0 00000222#2D00000000054200
(1771642808.215561) can0 00000202#1027D00758020000
(1771642808.257491) can0 00000131#0000009453780700
(1771642808.258827) can0 00000211#0000000023000000
(1771642808.289523) can0 000001C1#01005E0100000000
(1771642808.316249) can0 00000132#0000004CBADB0700
(1771642808.317594) can0 00000212#000000002D000000
(1771642808.340887) can0 0757F803#0110100001010000
(1771642808.348314) can0 00000172#0006000000000000
(1771642808.349730) can0 00000172#0106000000000000
(1771642808.380663) can0 00090001#0100001B7D000000
(1771642808.391424) can0 000001C2#01005E0100000000
(1771642808.392850) can0 00000232#1027D00758020000
(1771642808.416670) can0 00000321#07000000006C318D
(1771642808.418377) can0 00000322#09000000006C31AB
(1771642808.421753) can0 00000171#0006000000000000
(1771642808.423236) can0 00000171#0106000000000000
(1771642808.424371) can0 00000462#020E88E0000000EA
(1771642808.425500) can0 000001B1#160C07009559E700
(1771642808.443386) can0 0757F80B#0110100002030000
(1771642808.444345) can0 06080F81#1000004B00000000
(1771642808.445950) can0 060F8009#42F0004B00000003
(1771642808.447118) can0 00000251#6441000000000000
(1771642808.448112) can0 06081F82#1000004B00000000
(1771642808.449585) can0 060F801A#42F0004B00000003
(1771642808.458541) can0 00000131#000000955B780700
(1771642808.459907) can0 00000211#0000000023000000
(1771642808.485236) can0 00000252#0542000000000000
(1771642808.490609) can0 00000461#010E8838070000E7
(1771642808.496160) can0 00090002#0100001B7D000000
(1771642808.517192) can0 00000132#0000004DC3DB0700
(1771642808.518514) can0 00000212#000000002D000000
(1771642808.545405) can0 06080F81#1000004000000000
(1771642808.546910) can0 060F8009#42F0004000400000
(1771642808.547913) can0 06081F82#1000004000000000
(1771642808.549412) can0 060F801A#42F0004000400000
(1771642808.646680) can0 0757F803#02F0000101010000
(1771642808.662062) can0 00000131#000000955E780700
(1771642808.663430) can0 00000211#0000000023000000
(1771642808.719574) can0 00000132#0000004DC5DB0700
(1771642808.720957) can0 00000212#000000002D000000
(1771642808.731537) can0 00000462#020E88E0000000EA
(1771642808.736193) can0 0757F803#0110100001010000
(1771642808.792254) can0 000001B2#161607004DC81C00
(1771642808.793596) can0 00000461#010E8838070000E7
(1771642808.838136) can0 0757F80B#0110100002030000
(1771642808.854559) can0 00000251#6441000000000000
(1771642808.865616) can0 00000131#0000009562790700
(1771642808.866998) can0 00000211#0000000023000000
(1771642808.893279) can0 00000252#0542000000000000
(1771642808.917726) can0 00000321#07000000000C3271
(1771642808.919407) can0 00000331#D0471F1E380000A4
(1771642808.921077) can0 00000322#09000000000C3257
(1771642808.924207) can0 00000132#0000004ECADB0700
(1771642808.925576) can0 00000212#000000002D000000
(1771642808.927492) can0 000001A1#5A00E804000001B8
(1771642808.952300) can0 06080F81#1000000400000000
(1771642808.953755) can0 060F8009#41F0000441EA6600
(1771642808.954747) can0 06081F82#1000000400000000
(1771642808.956237) can0 060F801A#41F000044207CC00
(1771642809.036234) can0 00000462#020E88E0000000EA
(1771642809.068503) can0 00000131#0000009765790700
(1771642809.069816) can0 00000211#0000000023000000
(1771642809.100516) can0 00000461#010E884007000065
(1771642809.127170) can0 00000132#0000004ECDDC0700
(1771642809.128492) can0 00000212#000000002D000000
(1771642809.130883) can0 075D0003#A002000901800401
(1771642809.143435) can0 0757F80B#02F0000102030000
(1771642809.168144) can0 00000332#D0471F1E3B000019
(1771642809.179245) can0 000001A2#5A001D0500000243
(1771642809.233124) can0 0757F80B#0110100002030000
(1771642809.261559) can0 00000251#6441000000000000
(1771642809.272439) can0 00000131#0000009769790700
(1771642809.273810) can0 00000211#0000000023000000
(1771642809.300202) can0 00000252#0542000000000000
(1771642809.331198) can0 00000132#0000004FD1DC0700
(1771642809.332507) can0 00000212#000000002D000000
(1771642809.343160) can0 00000462#020E88E80000005A
(1771642809.354287) can0 00000172#0006000000000000
(1771642809.355699) can0 00000172#0106000000000000
(1771642809.356698) can0 06080F81#1000004000000000
(1771642809.358195) can0 060F8009#42F0004000400000
(1771642809.359201) can0 06081F82#1000004000000000
(1771642809.360696) can0 060F801A#42F0004000400000
(1771642809.404544) can0 00000461#010E884007000065
(1771642809.418599) can0 00000321#0700000000AC3269
(1771642809.420314) can0 00000322#0900000000AC324F
(1771642809.425577) can0 00000171#0006000000000000
(1771642809.426926) can0 00000171#0106000000000000
(1771642809.428348) can0 000001B1#2A200700986EE800
(1771642809.479542) can0 00000131#000000986F790700
(1771642809.480941) can0 00000211#0000000023000000
(1771642809.525894) can0 0757F803#0110100001010000
(1771642809.537268) can0 00000132#00000050D6DC0700
(1771642809.538610) can0 00000212#000000002D000000
(1771642809.628155) can0 075D000B#A002000901800401
(1771642809.649214) can0 00000462#020E88E80000005A
(1771642809.661619) can0 00000251#6441000000000000
(1771642809.682520) can0 00000131#0000009872790700
(1771642809.683876) can0 00000211#0000000023000000
(1771642809.700238) can0 00000252#0542000000000000
(1771642809.704586) can0 00000461#010E884007000065
(1771642809.711126) can0 00000282#06020088C9B3793F
(1771642809.712462) can0 00000282#0602016800000000
(1771642809.713852) can0 00000242#06020088C9B3793F
(1771642809.715206) can0 00000242#0602016800000000
(1771642809.746235) can0 00000132#00000050DEDC0700
(1771642809.747676) can0 00000212#000000002D000000
(1771642809.798277) can0 000001B2#2A2A070050E01D00
(1771642809.885597) can0 00000131#00000098757A0700
(1771642809.886982) can0 00000211#0000000023000000
(1771642809.919394) can0 00000321#07000000004C332D
(1771642809.920965) can0 075D0003#10F003C002000000
(1771642809.921917) can0 00000322#09000000004C330B
(1771642809.949260) can0 00000462#020E88E80000005A
(1771642809.950627) can0 00000132#00000051E2DC0700
(1771642809.952038) can0 00000212#000000002D000000
(1771642810.007566) can0 00000461#010E884007000065
(1771642810.008869) can0 00000231#1027D00758020000
(1771642810.010210) can0 00000221#2300000000644100
(1771642810.011531) can0 00000201#1027D00758020000
(1771642810.023129) can0 0757F80B#0110100002030000
(1771642810.062599) can0 00000251#6441000000000000
(1771642810.093589) can0 00000131#000000997C7A0700
(1771642810.094946) can0 00000211#0000000023000000
(1771642810.103199) can0 00000252#0542000000000000
(1771642810.154282) can0 00000132#00000051E5DD0700
(1771642810.155678) can0 00000212#000000002D000000
(1771642810.163049) can0 06080F81#1000004000000000
(1771642810.164591) can0 060F8009#42F0004000400000
(1771642810.165599) can0 06081F82#1000004000000000
(1771642810.167116) can0 060F801A#42F0004000400000
(1771642810.216420) can0 00000222#2D00000000054200
(1771642810.217794) can0 00000202#1027D00758020000
(1771642810.249502) can0 00000462#020E88E80000005A
(1771642810.295499) can0 000001C1#01005E0100000000
(1771642810.296806) can0 00000131#000000997F7A0700
(1771642810.298223) can0 00000211#0000000023000000
(1771642810.309533) can0 00000461#010E884007000065
(1771642810.315861) can0 0757F803#0110100001010000
(1771642810.360277) can0 00000172#0006000000000000
(1771642810.361630) can0 00000172#0106000000000000
(1771642810.363007) can0 00000132#00000051ECDD0700
(1771642810.364405) can0 00000212#000000002D000000
(1771642810.380523) can0 00090001#0100001B7D000000
(1771642810.395249) can0 000001C2#01005E0100000000
(1771642810.396605) can0 00000232#1027D00758020000
(1771642810.418250) can0 075D000B#10F003C002000000
(1771642810.420177) can0 00000321#0700000000EC3335
(1771642810.421872) can0 00000331#D0471F1E380000A4
(1771642810.423608) can0 00000322#0900000000EC3313
(1771642810.431431) can0 000001A1#5A00E904000001DA
(1771642810.432813) can0 00000171#0006000000000000
(1771642810.434212) can0 00000171#0106000000000000
(1771642810.435547) can0 000001B1#3E3407009B86E900
(1771642810.465424) can0 06080F81#1000000400000000
(1771642810.466749) can0 00000251#6441000000000000
(1771642810.467763) can0 06081F82#1000000400000000
(1771642810.469086) can0 060F8009#41F0000441EA6600
(1771642810.470238) can0 060F801A#41F000044207CC00
(1771642810.497319) can0 00090002#0100001B7D000000
(1771642810.498443) can0 00000401#7A07000000000000
(1771642810.499753) can0 00000421#9B13000089A30000
(1771642810.501056) can0 00000131#0000009B8A7A0700
(1771642810.502530) can0 00000211#0000000023000000
(1771642810.508263) can0 00000252#0542000000000000
(1771642810.549226) can0 00000462#020E88E80000005A
(1771642810.560207) can0 00000132#00000052F3DD0700
(1771642810.561525) can0 00000212#000000002D000000
(1771642810.613611) can0 00000461#010E8848070000D5
(1771642810.670564) can0 00000332#D0471F1E3B000019
(1771642810.682188) can0 000001A2#5A001E05000002E5
(1771642810.704492) can0 00000131#0000009B8D7A0700
(1771642810.705830) can0 00000211#0000000023000000
(1771642810.710969) can0 0757F803#0110100001010000
(1771642810.763225) can0 00000132#00000053F6DD0700
(1771642810.764526) can0 00000212#000000002D000000
(1771642810.805191) can0 000001B2#3E3E070053F81E00
(1771642810.813122) can0 0757F80B#0110100002030000
(1771642810.856265) can0 00000462#020E88F00000008D
(1771642810.866578) can0 00000251#6441000000000000
(1771642810.907556) can0 00000131#0000009B907B0700
(1771642810.908891) can0 00000211#0000000023000000
(1771642810.917389) can0 00000252#0542000000000000
(1771642810.919546) can0 00000461#010E8848070000D5
(1771642810.921299) can0 00000321#07000000008C34D5
(1771642810.922977) can0 00000322#09000000008C34F3
(1771642810.968226) can0 00000132#00000054FBDD0700
(1771642810.969558) can0 00000212#000000002D000000
(1771642810.970546) can0 06080F81#1000004000000000
(1771642810.972066) can0 060F8009#42F0004000400000
(1771642810.973073) can0 06081F82#1000004000000000
(1771642810.974596) can0 060F801A#42F0004000400000
(1771642811.105927) can0 0757F803#0110100001010000
(1771642811.110496) can0 00000131#0000009C937B0700
(1771642811.111833) can0 00000211#0000000023000000
(1771642811.160336) can0 00000462#020E88F00000008D
(1771642811.171215) can0 00000132#00000054FEDE0700
(1771642811.172517) can0 00000212#000000002D000000
(1771642811.208213) can0 0757F80B#0110100002030000
(1771642811.222495) can0 00000461#010E8848070000D5
(1771642811.273600) can0 00000251#6441000000000000
(1771642811.314528) can0 00000131#0000009C977B0700
(1771642811.315920) can0 00000211#0000000023000000
(1771642811.323351) can0 00000252#0542000000000000
(1771642811.364335) can0 00000172#0006000000000000
(1771642811.365656) can0 00000172#0106000000000000
(1771642811.376213) can0 00000132#0000005403DE0700
(1771642811.377544) can0 00000212#000000002D000000
(1771642811.421775) can0 00000321#07000000002C35CA
(1771642811.423460) can0 00000322#09000000002C35EC
(1771642811.436547) can0 00000171#0006000000000000
(1771642811.437907) can0 00000171#0106000000000000
(1771642811.439179) can0 000001B1#525207009D9BE900
(1771642811.468291) can0 00000462#020E88F00000008D
(1771642811.501040) can0 0757F803#0110100001010000
(1771642811.520602) can0 00000131#0000009D9C7B0700
(1771642811.521944) can0 00000211#0000000023000000
(1771642811.532533) can0 00000461#010E8848070000D5
(1771642811.579306) can0 00000132#0000005506DE0700
(1771642811.580701) can0 00000212#000000002D000000
(1771642811.603129) can0 0757F80B#0110100002030000
(1771642811.673678) can0 00000251#6441000000000000
(1771642811.681225) can0 0757F803#02F0000101010000
(1771642811.682363) can0 00000402#DE07000000000000
(1771642811.683687) can0 00000422#5518000009AC0000
(1771642811.724294) can0 00000282#06020088C9B3793F
(1771642811.725408) can0 00000131#0000009DA07B0700
(1771642811.726566) can0 00000282#0602016800000000
(1771642811.727732) can0 00000211#0000000023000000
(1771642811.728835) can0 00000242#06020088C9B3793F
(1771642811.730225) can0 00000242#0602016800000000
(1771642811.731676) can0 00000252#0542000000000000
(1771642811.772207) can0 00000462#020E88F00000008D
(1771642811.778147) can0 06080F81#1000004000000000
(1771642811.779629) can0 060F8009#42F0004000400000
(1771642811.780642) can0 06081F82#1000004000000000
(1771642811.782157) can0 060F801A#42F0004000400000
(1771642811.783291) can0 00000132#0000005510DE0700
(1771642811.784704) can0 00000212#000000002D000000
(1771642811.805123) can0 000001B2#5252070055121E00
(1771642811.838719) can0 00000461#010E8848070000D5
(1771642811.895911) can0 0757F803#0110100001010000
(1771642811.922622) can0 00000321#0700000000CC3589
(1771642811.924324) can0 00000331#D0471F1E380000A4
(1771642811.926002) can0 00000322#0900000000CC35AF
(1771642811.929464) can0 000001A1#5A00EA040000017C
(1771642811.930773) can0 00000131#0000009FA47C0700
(1771642811.932150) can0 00000211#0000000023000000
(1771642811.980903) can0 06080F81#1000000400000000
(1771642811.982317) can0 060F8009#41F0000441EA6600
(1771642811.983328) can0 06081F82#1000000400000000
(1771642811.984825) can0 060F801A#41F000044207CC00
(1771642811.986163) can0 00000132#0000005613DE0700
(1771642811.987510) can0 00000212#000000002D000000
(1771642811.998193) can0 0757F80B#0110100002030000
(1771642812.013813) can0 00000231#1027D00758020000
(1771642812.015166) can0 00000221#2300000000644100
(1771642812.016651) can0 00000201#1027D00758020000
(1771642812.077522) can0 00000251#6441000000000000
(1771642812.078633) can0 00000462#020E88F00000008D
(1771642812.129320) can0 00000252#0542000000000000
(1771642812.138514) can0 00000461#010E885007000002
(1771642812.139837) can0 00000131#0000009FAB7C0700
(1771642812.141187) can0 00000211#0000000023000000
(1771642812.172988) can0 00000332#D0471F1E3B000019
(1771642812.178478) can0 0757F80B#02F0000102030000
(1771642812.180154) can0 000001A2#5A001F0500000287
(1771642812.191156) can0 00000132#0000005718DF0700
(1771642812.192476) can0 00000212#000000002D000000
(1771642812.223208) can0 00000222#2D00000000054200
(1771642812.224504) can0 00000202#1027D00758020000
(1771642812.290931) can0 075D0003#A00300002201219D
(1771642812.302558) can0 000001C1#01005E0100000000
(1771642812.343591) can0 00000131#0000009FAE7C0700
(1771642812.345017) can0 00000211#0000000023000000
(1771642812.365406) can0 00000172#0006000000000000
(1771642812.366781) can0 00000172#0106000000000000
(1771642812.378404) can0 00000462#020E88F80000003D
(1771642812.386546) can0 00090001#0100001B7D000000
(1771642812.393121) can0 0757F80B#0110100002030000
(1771642812.399192) can0 000001C2#01005E0100000000
(1771642812.400529) can0 00000132#0000005720DF0700
(1771642812.401843) can0 00000232#1027D00758020000
(1771642812.403183) can0 00000212#000000002D000000
(1771642812.423441) can0 00000321#07000000006C3698
(1771642812.425146) can0 00000322#09000000006C36BE
(1771642812.437702) can0 00000171#0006000000000000
(1771642812.439087) can0 00000171#0106000000000000
(1771642812.440446) can0 000001B1#665C0700A0B3EA00
(1771642812.451559) can0 00000461#010E885007000002
(1771642812.482616) can0 00000251#6441000000000000
(1771642812.504200) can0 00090002#0100001B7D000000
(1771642812.535219) can0 00000252#0542000000000000
(1771642812.543541) can0 00000131#000000A0B67C0700
(1771642812.544903) can0 00000211#0000000023000000
(1771642812.587702) can0 06080F81#1000004000000000
(1771642812.589179) can0 060F8009#42F0004000400000
(1771642812.590182) can0 06081F82#1000004000000000
(1771642812.591684) can0 060F801A#42F0004000400000
(1771642812.606176) can0 00000132#0000005825DF0700
(1771642812.607525) can0 00000212#000000002D000000
(1771642812.678237) can0 00000462#020E88F80000003D
(1771642812.686101) can0 0757F803#0110100001010000
(1771642812.745596) can0 00000131#000000A0B87C0700
(1771642812.747231) can0 00000211#0000000023000000
(1771642812.758617) can0 00000461#010E885007000002
(1771642812.788210) can0 075D000B#A00300002201219D
(1771642812.809188) can0 000001B2#6666070058281F00
(1771642812.810493) can0 00000132#0000005829DF0700
(1771642812.811828) can0 00000212#000000002D000000
(1771642812.874232) can0 00000332#D0471F9E3A000043
(1771642812.883159) can0 000001A2#5A002005000002E1
(1771642812.889638) can0 00000251#6441000000000000
(1771642812.924323) can0 00000321#07000000000C376A
(1771642812.926023) can0 00000322#09000000000C374C
(1771642812.944279) can0 00000252#0542000000000000
(1771642812.950511) can0 00000131#000000A1BC7D0700
(1771642812.951874) can0 00000211#0000000023000000
(1771642812.985271) can0 00000462#020E8800010000E5
(1771642813.016252) can0 00000132#0000005A2EE00700
(1771642813.017570) can0 00000212#000000002D000000
(1771642813.062667) can0 00000461#010E885007000002
(1771642813.080945) can0 0757F803#0110100001010000
(1771642813.153643) can0 00000131#000000A1BF7D0700
(1771642813.155067) can0 00000211#0000000023000000
(1771642813.183360) can0 0757F80B#0110100002030000
(1771642813.218293) can0 00000132#0000005A30E00700
(1771642813.219661) can0 00000212#000000002D000000
(1771642813.290313) can0 00000462#020E8800010000E5
(1771642813.296508) can0 00000251#6441000000000000
(1771642813.351465) can0 00000252#0542000000000000
(1771642813.357490) can0 00000131#000000A1C27D0700
(1771642813.358845) can0 00000211#0000000023000000
(1771642813.369580) can0 00000461#010E885007000002
(1771642813.372126) can0 00000242#06020088C9B3793F
(1771642813.373495) can0 00000242#0602016800000000
(1771642813.374860) can0 00000172#0006000000000000
(1771642813.376202) can0 00000172#0106000000000000
(1771642813.397941) can0 06080F81#1000004000000000
(1771642813.399431) can0 060F8009#42F0004000400000
(1771642813.400449) can0 06081F82#1000004000000000
(1771642813.401990) can0 060F801A#42F0004000400000
(1771642813.425788) can0 00000321#0700000000AC3772
(1771642813.427237) can0 00000132#0000005A38E00700
(1771642813.428181) can0 00000331#D0471F1E380000A4
(1771642813.429518) can0 00000212#000000002D000000
(1771642813.430475) can0 00000322#0900000000AC3754
(1771642813.431787) can0 000001A1#5A00EB040000011E
(1771642813.442671) can0 00000171#0006000000000000
(1771642813.444089) can0 00000171#0106000000000000
(1771642813.445449) can0 000001B1#7A700700A3C8EB00
(1771642813.475943) can0 0757F803#0110100001010000
(1771642813.498869) can0 06080F81#1000000400000000
(1771642813.500330) can0 060F8009#41F0000441EA6600
(1771642813.501318) can0 06081F82#1000000400000000
(1771642813.502787) can0 060F801A#41F000044207CC00
(1771642813.566514) can0 00000131#000000A3C97D0700
(1771642813.567863) can0 00000211#0000000023000000
(1771642813.578154) can0 0757F80B#0110100002030000
(1771642813.590191) can0 00000462#020E8800010000E5
(1771642813.631217) can0 00000132#0000005B3BE00700
(1771642813.632556) can0 00000212#000000002D000000
(1771642813.678521) can0 00000461#010E8858070000B2
(1771642813.699692) can0 00000251#6441000000000000
(1771642813.753316) can0 00000252#0542000000000000
(1771642813.770538) can0 00000131#000000A3CD7D0700
(1771642813.771877) can0 00000211#0000000023000000
(1771642813.814702) can0 000001B2#7A7A07005B3E2000
(1771642813.835646) can0 00000132#0000005B3FE00700
(1771642813.836993) can0 00000212#000000002D000000
(1771642813.871562) can0 075D0003#10F003C002000000
(1771642813.897686) can0 00000462#020E8800010000E5
(1771642813.927251) can0 00000321#07000000004C381C
(1771642813.929645) can0 00000322#09000000004C383A
(1771642813.973082) can0 00000131#000000A4CF7E0700
(1771642813.974311) can0 0757F80B#0110100002030000
(1771642813.975302) can0 00000211#0000000023000000
(1771642813.985962) can0 00000461#010E8858070000B2
(1771642814.016988) can0 00000231#1027D00758020000
(1771642814.018274) can0 00000221#2300000000644100
(1771642814.019586) can0 00000201#1027D00758020000
(1771642814.038704) can0 00000132#0000005C42E10700
(1771642814.039990) can0 00000212#000000002D000000
(1771642814.100529) can0 00000251#6441000000000000
(1771642814.160303) can0 00000252#0542000000000000
(1771642814.181571) can0 00000131#000000A4D67E0700
(1771642814.182913) can0 00000211#0000000023000000
(1771642814.201337) can0 00000462#020E8800010000E5
(1771642814.207476) can0 06080F81#1000004000000000
(1771642814.209008) can0 060F8009#42F0004000400000
(1771642814.210012) can0 06081F82#1000004000000000
(1771642814.211517) can0 060F801A#42F0004000400000
(1771642814.232329) can0 00000222#2D00000000054200
(1771642814.233625) can0 00000202#1027D00758020000
(1771642814.244301) can0 00000132#0000005C48E10700
(1771642814.245824) can0 00000212#000000002D000000
(1771642814.265972) can0 0757F803#0110100001010000
(1771642814.293545) can0 00000461#010E8858070000B2
(1771642814.304530) can0 000001C1#01005E0100000000
(1771642814.368418) can0 075D000B#10F003C002000000
(1771642814.377331) can0 00000172#0006000000000000
(1771642814.378258) can0 00000332#D0471F9E3A000043
(1771642814.379611) can0 00000172#0106000000000000
(1771642814.385538) can0 00000131#000000A4DA7E0700
(1771642814.386911) can0 00000211#0000000023000000
(1771642814.390318) can0 000001A2#5A00210500000283
(1771642814.397601) can0 00090001#0100001B7D000000
(1771642814.401242) can0 000001C2#01005E0100000000
(1771642814.402549) can0 00000232#1027D00758020000
(1771642814.427519) can0 00000321#0700000000EC3804
(1771642814.429207) can0 00000322#0900000000EC3822
(1771642814.448546) can0 00000171#0006000000000000
(1771642814.449877) can0 00000171#0106000000000000
(1771642814.451162) can0 000001B1#8E8E0700A5DFEB00
(1771642814.453242) can0 00000132#0000005E4FE10700
(1771642814.454617) can0 00000212#000000002D000000
(1771642814.502603) can0 00000251#6441000000000000
(1771642814.505329) can0 00000462#020E880801000055
(1771642814.506732) can0 00090002#0100001B7D000000
(1771642814.568325) can0 00000252#0542000000000000
(1771642814.593686) can0 00000461#010E8858070000B2
(1771642814.594994) can0 00000131#000000A5E27E0700
(1771642814.596345) can0 00000211#0000000023000000
(1771642814.659198) can0 00000132#0000005E54E10700
(1771642814.660517) can0 00000212#000000002D000000
(1771642814.661681) can0 0757F803#0110100001010000
(1771642814.716282) can0 0757F803#02F0000101010000
(1771642814.763178) can0 0757F80B#0110100002030000
(1771642814.797532) can0 00000131#000000A5E47E0700
(1771642814.798938) can0 00000211#0000000023000000
(1771642814.811265) can0 00000462#020E880801000055
(1771642814.822176) can0 000001B2#8E8E07005E572100
(1771642814.863210) can0 00000132#0000005E58E10700
(1771642814.864523) can0 00000212#000000002D000000
(1771642814.895164) can0 00000282#06020088C9B3793F
(1771642814.896563) can0 00000282#0602016800000000
(1771642814.899643) can0 00000461#010E8858070000B2
(1771642814.910486) can0 00000251#6441000000000000
(1771642814.928286) can0 00000321#07000000008C39F6
(1771642814.929978) can0 00000331#D0471F1E380000A4
(1771642814.931670) can0 00000322#09000000008C39D0
(1771642814.941456) can0 000001A1#5A00EC0400000137
(1771642814.977248) can0 00000252#0542000000000000
(1771642815.002550) can0 00000131#000000A7E97F0700
(1771642815.003871) can0 00000211#0000000023000000
(1771642815.014492) can0 06080F81#1000000400000000
(1771642815.016018) can0 060F8009#41F0000441EA6600
(1771642815.017032) can0 06081F82#1000000400000000
(1771642815.018488) can0 060F801A#41F000044207CC00
(1771642815.055934) can0 0757F803#0110100001010000
(1771642815.065030) can0 06081F82#1000004000000000
(1771642815.066532) can0 060F801A#42F0004000400000
(1771642815.067529) can0 06080F81#1000004000000000
(1771642815.068853) can0 00000132#0000005F5DE20700
(1771642815.070010) can0 060F8009#42F0004000400000
(1771642815.071166) can0 00000212#000000002D000000
(1771642815.112288) can0 00000462#320E880801000027
(1771642815.128617) can0 00000322#0900000000CC398B
(1771642815.158176) can0 0757F80B#0110100002030000
(1771642815.204700) can0 00000461#010E8860070000AB
(1771642815.206156) can0 00000131#000000A7EC7F0700
(1771642815.207643) can0 00000211#0000000023000000
(1771642815.213452) can0 0757F80B#02F0000102030000
(1771642815.228749) can0 00000322#0900000000EC3925
(1771642815.273337) can0 00000132#0000006160E20700
(1771642815.274976) can0 00000212#000000002D000000
(1771642815.318671) can0 00000251#6441000000000000
(1771642815.328943) can0 00000322#09000000000C3A6F
(1771642815.386340) can0 00000172#0006000000000000
(1771642815.387738) can0 00000172#0106000000000000
(1771642815.389169) can0 00000252#0542000000000000
(1771642815.409564) can0 00000131#000000A7EF7F0700
(1771642815.410952) can0 00000211#0000000023000000
(1771642815.420323) can0 00000462#3A0E8808010000CD
(1771642815.429109) can0 00000321#07000000002C3AE7
(1771642815.430834) can0 00000322#09000000002C3AC1
(1771642815.450982) can0 075D0003#A001100801800081
(1771642815.452151) can0 00000171#0006000000000000
(1771642815.453543) can0 00000171#0106000000000000
(1771642815.454837) can0 000001B1#A2A20700A8F3EC00
(1771642815.481195) can0 00000132#0000006366E20700
(1771642815.482517) can0 00000212#000000002D000000
(1771642815.505521) can0 00000461#010E8860070000AB
(1771642815.529299) can0 00000322#09000000004C3A34
(1771642815.553196) can0 0757F80B#0110100002030000
(1771642815.616569) can0 00000131#000000A8F57F0700
(1771642815.617921) can0 00000211#0000000023000000
(1771642815.629498) can0 00000322#09000000006C3A9A
(1771642815.683315) can0 00000132#0000006568E20700
(1771642815.684717) can0 00000212#000000002D000000
(1771642815.718542) can0 00000251#6441000000000000
(1771642815.725212) can0 00000462#3A0E8808010000CD
(1771642815.729669) can0 00000322#09000000008C3AD9
(1771642815.786251) can0 00000252#0542000000000000
(1771642815.809527) can0 00000461#010E8860070000AB
(1771642815.820600) can0 00000131#000000A8F97F0700
(1771642815.821961) can0 00000211#0000000023000000
(1771642815.827150) can0 000001B2#A8A80700666C2100
(1771642815.829848) can0 00000322#0900000000AC3A77
(1771642815.846024) can0 0757F803#0110100001010000
(1771642815.872675) can0 06081F82#1000004000000000
(1771642815.874170) can0 060F801A#42F0004000400000
(1771642815.875167) can0 06080F81#1000004000000000
(1771642815.876663) can0 060F8009#42F0004000400000
(1771642815.879874) can0 00000332#D0471F9E3A000043
(1771642815.888149) can0 000001A2#5A00220500000225
(1771642815.889491) can0 00000132#000000686EE20700
(1771642815.890916) can0 00000212#000000002D000000
(1771642815.930047) can0 00000321#0700000000CC3AA4
(1771642815.931752) can0 00000322#0900000000CC3A82
(1771642815.948222) can0 075D000B#A001100801800081
(1771642816.022525) can0 00000131#000000A9FB800700
(1771642816.023816) can0 00000231#1027D00758020000
(1771642816.025154) can0 00000221#2300000000644100
(1771642816.026488) can0 00000211#0000000023000000
(1771642816.027808) can0 00000201#1027D00758020000
(1771642816.030199) can0 00000322#0900000000EC3A2C
(1771642816.032386) can0 00000462#3A0E88100100001A
(1771642816.093231) can0 00000132#0000006A71E30700
(1771642816.094547) can0 00000212#000000002D000000
(1771642816.118546) can0 00000461#010E8860070000AB
(1771642816.119873) can0 00000251#6441000000000000
(1771642816.130430) can0 00000322#09000000000C3B68
(1771642816.195272) can0 00000252#0542000000000000
(1771642816.230509) can0 00000131#000000A902800700
(1771642816.231452) can0 00000322#09000000002C3BC6
(1771642816.232809) can0 00000211#0000000023000000
(1771642816.236197) can0 00000222#2D00000007054200
(1771642816.237519) can0 00000202#1027D00758020000
(1771642816.240926) can0 0757F803#0110100001010000
(1771642816.298245) can0 00000132#0000006C76E30700
(1771642816.299592) can0 00000212#000000002D000000
(1771642816.313574) can0 000001C1#01005E0100000000
(1771642816.331140) can0 00000322#09000000004C3B33
(1771642816.340222) can0 00000462#3A0E88100100001A
(1771642816.343240) can0 0757F80B#0110100002030000
(1771642816.391450) can0 00000172#0006000000000000
(1771642816.392867) can0 00000172#0106000000000000
(1771642816.404236) can0 000001C2#01005E0100000000
(1771642816.405379) can0 00090001#0100001B7D000000
(1771642816.406512) can0 00000232#1027D00758020000
(1771642816.426537) can0 00000461#010E8860070000AB
(1771642816.431337) can0 00000321#07000000006C3BBB
(1771642816.433087) can0 00000331#D0471F1E380000A4
(1771642816.434762) can0 00000322#09000000006C3B9D
(1771642816.437465) can0 000001A1#5A00ED0400000155
(1771642816.438782) can0 00000131#000000AB08800700
(1771642816.440132) can0 00000211#0000000023000000
(1771642816.451654) can0 00000171#0006000000000000
(1771642816.453068) can0 00000171#0106000000000000
(1771642816.454373) can0 000001B1#B6B60700AB0CED00
(1771642816.507257) can0 00000132#0000006E7DE30700
(1771642816.508560) can0 00090002#0100001B7D000000
(1771642816.509905) can0 00000212#000000002D000000
(1771642816.525595) can0 00000251#6441000000000000
(1771642816.529240) can0 06080F81#1000000400000000
(1771642816.530713) can0 060F8009#41F0000441EA6600
(1771642816.531730) can0 06081F82#1000000400000000
(1771642816.533290) can0 060F801A#41F000044207CC00
(1771642816.534241) can0 00000322#09000000008C3BDE
(1771642816.601314) can0 00000252#0542000000000000
(1771642816.631740) can0 00000322#0900000000AC3B70
(1771642816.635921) can0 0757F803#0110100001010000
(1771642816.642317) can0 00000462#3A0E88100100001A
(1771642816.646484) can0 00000131#000000AB0E800700
(1771642816.647842) can0 00000211#0000000023000000
(1771642816.680691) can0 06081F82#1000004000000000
(1771642816.682170) can0 060F801A#42F0004000400000
(1771642816.683163) can0 06080F81#1000004000000000
(1771642816.684658) can0 060F8009#42F0004000400000
(1771642816.713277) can0 00000132#0000007082E30700
(1771642816.714632) can0 00000212#000000002D000000
(1771642816.728639) can0 00000461#010E88680700001B
(1771642816.731870) can0 00000322#0900000000CC3B85
(1771642816.738161) can0 0757F80B#0110100002030000
(1771642816.832050) can0 00000322#0900000000EC3B2B
(1771642816.835327) can0 000001B2#BEBC070072842200
(1771642816.849490) can0 00000131#000000AB11810700
(1771642816.850830) can0 00000211#0000000023000000
(1771642816.916349) can0 00000132#0000007285E30700
(1771642816.917668) can0 00000212#000000002D000000
(1771642816.931594) can0 00000251#6441000000000000
(1771642816.932545) can0 00000321#07000000000C3C5B
(1771642816.934256) can0 00000322#09000000000C3C7D
(1771642816.948364) can0 00000462#3A0E88100100001A
(1771642817.009262) can0 00000252#0542000000000000
(1771642817.031026) can0 0757F803#0110100001010000
(1771642817.032535) can0 00000461#010E88680700001B
(1771642817.033493) can0 00000322#09000000002C3CD3
(1771642817.053538) can0 00000131#000000AC15810700
(1771642817.054875) can0 00000211#0000000023000000
(1771642817.120485) can0 00000132#0000007489E40700
(1771642817.121865) can0 00000212#000000002D000000
(1771642817.132678) can0 00000322#09000000004C3C26
(1771642817.134064) can0 0757F80B#0110100002030000
(1771642817.233510) can0 00000322#09000000006C3C88
(1771642817.253277) can0 00000462#3A0E88100100001A
(1771642817.255736) can0 00000131#000000AC17810700
(1771642817.257147) can0 00000211#0000000023000000
(1771642817.324220) can0 00000132#000000768CE40700
(1771642817.325537) can0 00000212#000000002D000000
(1771642817.333700) can0 00000322#09000000008C3CCB
(1771642817.338540) can0 00000461#010E88680700001B
(1771642817.339957) can0 00000251#6441000000000000
(1771642817.383777) can0 00000332#D0471F9E3A000043
(1771642817.396243) can0 000001A2#5A00230500000247
(1771642817.397591) can0 00000172#0006000000000000
(1771642817.398998) can0 00000172#0106000000000000
(1771642817.410322) can0 00000252#0542000000000000
(1771642817.425924) can0 0757F803#0110100001010000
(1771642817.433946) can0 00000321#0700000000AC3C43
(1771642817.435678) can0 00000322#0900000000AC3C65
(1771642817.460660) can0 00000171#0006000000000000
(1771642817.462016) can0 00000171#0106000000000000
(1771642817.463343) can0 000001B1#CACA0700AD1DED00
(1771642817.464690) can0 00000131#000000AD1E810700
(1771642817.466028) can0 00000211#0000000023000000
(1771642817.490166) can0 06081F82#1000004000000000
(1771642817.491714) can0 060F801A#42F0004000400000
(1771642817.492705) can0 06080F81#1000004000000000
(1771642817.494198) can0 060F8009#42F0004000400000
(1771642817.528341) can0 0757F80B#0110100002030000
(1771642817.531289) can0 00000132#0000007992E40700
(1771642817.532640) can0 00000212#000000002D000000
(1771642817.534512) can0 00000322#0900000000CC3C90
(1771642817.553253) can0 00000462#3A0E8818010000AA
(1771642817.634396) can0 00000322#0900000000EC3C3E
(1771642817.642134) can0 06080F81#0300003000010000
(1771642817.643623) can0 060F8009#42F0003000010000
(1771642817.644616) can0 06081F82#0300003000010000
(1771642817.646232) can0 060F801A#42F0003000010000
(1771642817.647332) can0 00000461#010E88680700001B
(1771642817.651707) can0 0757F803#02F0000101010000
(1771642817.668580) can0 00000131#000000AD21810700
(1771642817.669960) can0 00000211#0000000023000000
(1771642817.734236) can0 00000132#0000007B95E40700
(1771642817.735191) can0 00000322#09000000000C3D7A
(1771642817.736524) can0 00000212#000000002D000000
(1771642817.740750) can0 00000251#6441000000000000
(1771642817.817303) can0 00000252#0542000000000000
(1771642817.834725) can0 00000322#09000000002C3DD4
(1771642817.838352) can0 000001B2#D2D007007D982300
(1771642817.859404) can0 00000462#3A0E8818010000AA
(1771642817.871600) can0 00000131#000000AD24820700
(1771642817.873012) can0 00000211#0000000023000000
(1771642817.923227) can0 0757F80B#0110100002030000
(1771642817.934920) can0 00000321#07000000004C3D07
(1771642817.936583) can0 00000331#D0471F1E380000A4
(1771642817.938247) can0 00000322#09000000004C3D21
(1771642817.940316) can0 00000132#0000007D9AE40700
(1771642817.941859) can0 00000212#000000002D000000
(1771642817.943585) can0 000001A1#5A00EE04000001F3
(1771642817.954658) can0 00000461#010E8870070000CC
(1771642818.025545) can0 00000231#1027D00758020000
(1771642818.026839) can0 00000221#2300000000644100
(1771642818.028165) can0 00000201#1027D00758020000
(1771642818.035081) can0 00000322#09000000006C3D8F
(1771642818.045945) can0 0757F803#0110100001010000
(1771642818.046929) can0 06080F81#1000000400000000
(1771642818.048375) can0 060F8009#41F0000441EA6600
(1771642818.049404) can0 06081F82#1000000400000000
(1771642818.050895) can0 060F801A#41F000044207CC00
(1771642818.079612) can0 00000131#000000AF2B820700
(1771642818.080958) can0 00000211#0000000023000000
(1771642818.135293) can0 00000322#09000000008C3DCC
(1771642818.141514) can0 00000251#6441000000000000
(1771642818.143211) can0 00000132#000000809CE50700
(1771642818.144574) can0 00000212#000000002D000000
(1771642818.148984) can0 0757F80B#02F0000102030000
(1771642818.165432) can0 00000462#3A0E8818010000AA
(1771642818.226264) can0 00000252#0542000000000000
(1771642818.235518) can0 00000322#0900000000AC3D62
(1771642818.237432) can0 00000222#2D00000007054200
(1771642818.238776) can0 00000202#1027D00758020000
(1771642818.262973) can0 00000461#010E8870070000CC
(1771642818.283516) can0 00000131#000000AF2F820700
(1771642818.284834) can0 00000211#0000000023000000
(1771642818.299090) can0 06081F82#1000004000000000
(1771642818.300570) can0 060F801A#42F0004000400000
(1771642818.301571) can0 06080F81#1000004000000000
(1771642818.303064) can0 060F8009#42F0004000400000
(1771642818.315648) can0 000001C1#01005E0100000000
(1771642818.335694) can0 00000322#0900000000CC3D97
(1771642818.349263) can0 00000132#00000082A2E50700
(1771642818.350580) can0 00000212#000000002D000000
(1771642818.401248) can0 00000172#0006000000000000
(1771642818.402574) can0 00000172#0106000000000000
(1771642818.406531) can0 00090001#0100001B7D000000
(1771642818.413333) can0 000001C2#01005E0100000000
(1771642818.414696) can0 00000232#1027D00758020000
(1771642818.435822) can0 00000321#0700000000EC3D1F
(1771642818.437505) can0 00000322#0900000000EC3D39
(1771642818.440942) can0 0757F803#0110100001010000
(1771642818.465236) can0 00000462#420E881B418B02E4
(1771642818.467635) can0 00000171#0006000000000000
(1771642818.469018) can0 00000171#0106000000000000
(1771642818.470371) can0 000001B1#DEDE0700B035EE00
(1771642818.491519) can0 00000131#000000B036820700
(1771642818.492945) can0 00000211#0000000023000000
(1771642818.501579) can0 06081F82#0300003000000000
(1771642818.503074) can0 060F801A#42F0003000000000
(1771642818.504057) can0 06081F82#0300002100000000
(1771642818.505538) can0 060F801A#41F2002100000000
(1771642818.506530) can0 06081F82#0300001B00000000
(1771642818.508001) can0 060F801A#42F0001B00000000
(1771642818.516299) can0 00090002#0100001B7D000000
(1771642818.536017) can0 00000322#0900000040053E48
(1771642818.543202) can0 0757F80B#0110100002030000
(1771642818.544367) can0 00000251#6441000000000000
(1771642818.552178) can0 06081F82#1000000200000000
(1771642818.553674) can0 060F801A#41F0000200000000
(1771642818.557320) can0 00000132#00000084AAE50700
(1771642818.558689) can0 00000212#160E14002D000000
(1771642818.565580) can0 00000461#010E8870070000CC
(1771642818.602267) can0 06081F82#1000000300000000
(1771642818.603698) can0 060F801A#41F000033D8A0000
(1771642818.629277) can0 00000252#0542160E14000000
(1771642818.636700) can0 00000322#0900000040A53E50
(1771642818.653347) can0 06081F82#1000004000000000
(1771642818.654802) can0 060F801A#42F0004000400000
(1771642818.696531) can0 00000131#000000B03A820700
(1771642818.697855) can0 00000211#0000000023000000
(1771642818.703818) can0 06081F82#1000000100000000
(1771642818.705261) can0 060F801A#41F000014088C000
(1771642818.707207) can0 00000322#09000000E0153F50
(1771642818.708862) can0 00000332#D057009E3A0000DF
(1771642818.720191) can0 000001A2#5A0024050000026E
(1771642818.754429) can0 06081F82#1000000200000000
(1771642818.755888) can0 060F801A#41F0000200000000
(1771642818.761190) can0 00000132#00000087AEE50700
(1771642818.762498) can0 00000212#150E14002D000000
(1771642818.773318) can0 00000462#42608823418B0209
(1771642818.804953) can0 06081F82#1000004000000000
(1771642818.806433) can0 060F801A#42F0004000400000
(1771642818.808203) can0 00000322#09000000E0B53F48
(1771642818.835977) can0 0757F803#0110100001010000
(1771642818.844301) can0 000001B2#FBFB000088B12400
(1771642818.855554) can0 06081F82#1000000100000000
(1771642818.857017) can0 060F801A#41F000014088C000
(1771642818.868509) can0 00000461#010E8870070000CC
(1771642818.899584) can0 00000131#000000B03D830700
(1771642818.900951) can0 00000211#0000000023000000
(1771642818.906022) can0 06081F82#1000000200000000
(1771642818.907703) can0 060F801A#41F0000200000000
(1771642818.908624) can0 00000322#09000000E0553026
(1771642818.910273) can0 00000332#D05740803A0000B4
(1771642818.915403) can0 000001A2#5A0025050000020C
(1771642818.938194) can0 0757F80B#0110100002030000
(1771642818.939145) can0 00000321#07000000008C30C9
(1771642818.951549) can0 00000251#6441000000000000
(1771642818.956603) can0 06081F82#1000004000000000
(1771642818.958062) can0 060F801A#42F0004000400000
(1771642818.966296) can0 00000132#0000008AB3E50700
(1771642818.967695) can0 00000212#130E14002D000000
(1771642819.007277) can0 06081F82#1000000100000000
(1771642819.008707) can0 060F801A#41F000014088E000
(1771642819.009698) can0 06081F82#0300003000000000
(1771642819.011168) can0 060F801A#42F0003000000000
(1771642819.012128) can0 06081F82#0300002143580000
(1771642819.013601) can0 060F801A#41F0002143580000
(1771642819.014601) can0 06081F82#0300001B00000800
(1771642819.016070) can0 060F801A#42F0001B00000800
(1771642819.017027) can0 00000322#09000000E0F5303E
(1771642819.038238) can0 00000252#0542130E14000000
(1771642819.057862) can0 06081F82#1000000200000000
(1771642819.059327) can0 060F801A#41F0000200000000
(1771642819.079278) can0 00000462#4360882B418B0266
(1771642819.103060) can0 00000131#000000B140830700
(1771642819.104379) can0 00000211#0000000023000000
(1771642819.108675) can0 06081F82#1000000400000000
(1771642819.110363) can0 060F801A#41F000044207CC00
(1771642819.111156) can0 06080F81#1000004000000000
(1771642819.112855) can0 060F8009#42F0004000400000
(1771642819.113629) can0 00000322#09000000E09531CC
(1771642819.170763) can0 00000132#0000008CB7E60700
(1771642819.172071) can0 00000212#130E14002D000000
(1771642819.175074) can0 00000461#010E8870070000CC
(1771642819.183368) can0 06081F82#1000004000000000
(1771642819.185033) can0 060F801A#42F0004000400000
(1771642819.211784) can0 00000322#09000000E03532DD
(1771642819.231410) can0 0757F803#0110100001010000
(1771642819.233890) can0 06081F82#1000000100000000
(1771642819.235579) can0 060F801A#41F0000140B37000
(1771642819.285447) can0 06081F82#1000000200000000
(1771642819.287115) can0 060F801A#41F0000200000000
(1771642819.292739) can0 00000322#0B000000E0B532D2
(1771642819.306141) can0 00000131#000000B143830700
(1771642819.307589) can0 00000211#0000000023000000
(1771642819.333563) can0 0757F80B#0110100002030000
(1771642819.336086) can0 06081F82#1000004000000000
(1771642819.337731) can0 060F801A#42F0004000400000
(1771642819.358949) can0 00000251#6441000000000000
(1771642819.372642) can0 00000132#0000008EB9E60700
(1771642819.373961) can0 00000212#130E140037000000
(1771642819.384567) can0 00000462#4360882B418B0266
(1771642819.387064) can0 06081F82#1000000100000000
(1771642819.388748) can0 060F801A#41F0000140DF9000
(1771642819.394025) can0 00000322#0B000000E0553396
(1771642819.405294) can0 00000172#0006000000000000
(1771642819.406702) can0 00000172#0106000000000000
(1771642819.437983) can0 06081F82#1000000200000000
(1771642819.439503) can0 060F801A#41F0000200000000
(1771642819.443953) can0 00000321#0700000000AC336E
(1771642819.445612) can0 00000331#D0471F1E380000A4
(1771642819.447254) can0 00000252#0543130E14000000
(1771642819.449541) can0 000001A1#5A00EF0400000191
(1771642819.454048) can0 00000322#0E000000E0B5337F
(1771642819.470564) can0 00000171#0006000000000000
(1771642819.471893) can0 00000171#0106000000000000
(1771642819.473172) can0 000001B1#3A3A0700B349EF00
(1771642819.484611) can0 00000461#010E88780700007C
(1771642819.488524) can0 06081F82#1000004000000000
(1771642819.490031) can0 060F801A#42F0004000400000
(1771642819.505518) can0 00000131#000000B34B830700
(1771642819.506850) can0 00000211#0000000023000000
(1771642819.539258) can0 06081F82#1000000100000000
(1771642819.540709) can0 060F801A#41F0000141168C00
(1771642819.541703) can0 06081F82#0300003000000000
(1771642819.543284) can0 060F801A#42F0003000000000
(1771642819.544244) can0 06081F82#0300002143B40000
(1771642819.545749) can0 060F801A#41F0002143B40000
(1771642819.546716) can0 06081F82#0300001B00000800
(1771642819.548571) can0 060F801A#42F0001B00000800
(1771642819.554769) can0 00000322#0E000000E0553429
(1771642819.578229) can0 00000132#00000091BFE60700
(1771642819.579593) can0 00000212#150E140046000000
(1771642819.589888) can0 06080F81#1000000400000000
(1771642819.591348) can0 060F8009#41F0000441EA6600
(1771642819.592354) can0 06081F82#1000000200000000
(1771642819.593850) can0 060F801A#41F0000200000000
(1771642819.615185) can0 00000322#13000000E0B534F9
(1771642819.625955) can0 0757F803#0110100001010000
(1771642819.640405) can0 06081F82#1000000300000000
(1771642819.641854) can0 060F801A#41F000033D8A0000
(1771642819.690375) can0 00000462#4360882B418B0266
(1771642819.691369) can0 06081F82#1000004000000000
(1771642819.692862) can0 060F801A#42F0004000000000
(1771642819.707592) can0 00000131#000000B34D830700
(1771642819.708981) can0 00000211#0000000023000000
(1771642819.715880) can0 00000322#13000000E05535BD
(1771642819.728297) can0 0757F80B#0110100002030000
(1771642819.741599) can0 06081F82#1000000100000000
(1771642819.743058) can0 060F801A#41F00001420A8700
(1771642819.759922) can0 00000251#6441000000000000
(1771642819.781209) can0 00000132#00000093C2E60700
(1771642819.782548) can0 00000212#150E14005F000000
(1771642819.791571) can0 00000461#010E88780700007C
(1771642819.792565) can0 06081F82#1000000200000000
(1771642819.794063) can0 060F801A#41F0000200000000
(1771642819.796454) can0 00000322#45000000E0D53551
(1771642819.842754) can0 06081F82#1000004000000000
(1771642819.844247) can0 060F801A#42F0004000000000
(1771642819.853204) can0 00000252#0543150E14000000
(1771642819.854523) can0 000001B2#5D5D000094C52500
(1771642819.893346) can0 06081F82#1000000100000000
(1771642819.894799) can0 060F801A#41F00001428FE500
(1771642819.897206) can0 00000322#45000000E0753640
(1771642819.912509) can0 00000131#000000B351840700
(1771642819.913866) can0 00000211#0000000023000000
(1771642819.943944) can0 06081F82#1000000200000000
(1771642819.945447) can0 060F801A#41F0000200000000
(1771642819.946443) can0 06080F81#1000004000000000
(1771642819.947946) can0 060F8009#42F0004000400000
(1771642819.948906) can0 00000321#0700000000CC3680
(1771642819.957697) can0 00000322#90000000E0D536EE
(1771642819.985294) can0 00000132#00000096C6E60700
(1771642819.986640) can0 00000212#150E1400D0020000
(1771642819.994540) can0 06081F82#1000004000000000
(1771642819.996011) can0 060F801A#42F0004000000000
(1771642819.997209) can0 00000462#4360882B418B0266
(1771642820.020940) can0 0757F803#0110100001010000
(1771642820.034753) can0 00000231#1027D00758020000
(1771642820.036103) can0 00000221#2300000000644100
(1771642820.037634) can0 00000201#1027D00758020000
(1771642820.045125) can0 06081F82#1000000100000000
(1771642820.046568) can0 060F801A#41F0000142D79B00
(1771642820.047528) can0 06081F82#0300002143B40000
(1771642820.048991) can0 060F801A#41F0002143B40000
(1771642820.049977) can0 06081F82#0300001B00000800
(1771642820.051477) can0 060F801A#42F0001B00000800
(1771642820.058417) can0 00000322#90000000E07537F1
(1771642820.095846) can0 06081F82#1000000200000000
(1771642820.097317) can0 060F801A#41F0000200000000
(1771642820.098502) can0 00000461#010E88780700007C
(1771642820.099805) can0 00000111#4553505F43010000
(1771642820.118821) can0 00000322#D8000000E0D53746
(1771642820.120598) can0 00000131#000000B458840700
(1771642820.122035) can0 00000211#0000000023000000
(1771642820.123234) can0 0757F80B#0110100002030000
(1771642820.146428) can0 06081F82#1000000400000000
(1771642820.147875) can0 060F801A#41F000044207CC00
(1771642820.162557) can0 00000251#6441000000000000
(1771642820.188269) can0 00000132#00000098C9E70700
(1771642820.189613) can0 00000212#150E140038040000
(1771642820.196993) can0 06081F82#1000004000000000
(1771642820.198513) can0 060F801A#42F0004000000000
(1771642820.219546) can0 00000322#D8000000E0753873
(1771642820.240273) can0 00000222#3804000008054300
(1771642820.241596) can0 00000202#1027140005000000
(1771642820.247520) can0 06081F82#1000000100000000
(1771642820.248987) can0 060F801A#41F00001431E9600
(1771642820.262314) can0 00000252#0543150E14000000
(1771642820.298118) can0 06081F82#1000000200000000
(1771642820.299590) can0 060F801A#41F0000200000000
(1771642820.300564) can0 00000322#3D010000E0F53828
(1771642820.303267) can0 00000462#4360882B418B0266
(1771642820.323618) can0 000001C1#01005E0100000000
(1771642820.324940) can0 00000131#000000B45C840700
(1771642820.326352) can0 00000211#0000000023000000
(1771642820.348660) can0 06081F82#1000004000000000
(1771642820.350125) can0 060F801A#42F0004000000000
(1771642820.394504) can0 00000132#0000009ACFE70700
(1771642820.395857) can0 00000212#150E140031060000
(1771642820.399448) can0 06081F82#1000000100000000
(1771642820.400867) can0 060F801A#41F000014345D500
(1771642820.401808) can0 00000322#3D010000E09539DA
(1771642820.407365) can0 00000172#0006000000000000
(1771642820.408456) can0 00000461#010E88780700007C
(1771642820.409630) can0 00000172#0106000000000000
(1771642820.410797) can0 00090001#0100001B7D000000
(1771642820.411741) can0 00000332#D05740803A0000B4
(1771642820.415957) can0 0757F803#0110100001010000
(1771642820.420164) can0 000001A2#5A002605000002AA
(1771642820.421515) can0 000001C2#01005E0100000000
(1771642820.422850) can0 00000232#1027140005000000
(1771642820.449956) can0 06081F82#1000000200000000
(1771642820.451421) can0 060F801A#41F0000200000000
(1771642820.452379) can0 00000321#0700000000EC3903
(1771642820.461494) can0 00000322#8C010000E0F53908
(1771642820.471554) can0 00000171#0006000000000000
(1771642820.472906) can0 00000171#0106000000000000
(1771642820.474202) can0 000001B1#9E9E0700B562EF00
(1771642820.500529) can0 06081F82#1000004000000000
(1771642820.501993) can0 060F801A#42F0004000000000
(1771642820.505628) can0 00000401#8407000000000000
(1771642820.507009) can0 00000421#B513000064A40000
(1771642820.518202) can0 0757F80B#0110100002030000
(1771642820.524291) can0 00090002#0100001B7D000000
(1771642820.527605) can0 00000131#000000B565840700
(1771642820.528995) can0 00000211#0000000023000000
(1771642820.551205) can0 06081F82#1000000100000000
(1771642820.552634) can0 060F801A#41F0000143539200
(1771642820.553590) can0 06081F82#0300002143B40000
(1771642820.555057) can0 060F801A#41F0002143B40000
(1771642820.556040) can0 06081F82#0300001B00000800
(1771642820.557502) can0 060F801A#42F0001B00000800
(1771642820.562257) can0 00000322#8C010000E0953AF4
(1771642820.569577) can0 00000251#6441000000000000
(1771642820.595320) can0 00000132#0000009ED7E70700
(1771642820.596625) can0 00000212#150E1400BC070000
(1771642820.601795) can0 06081F82#1000000200000000
(1771642820.603346) can0 060F801A#41F0000200000000
(1771642820.607216) can0 00000462#43608833418B02B1
(1771642820.622705) can0 00000322#A7010000E0F53A2C
(1771642820.652351) can0 06081F82#1000000300000000
(1771642820.653799) can0 060F801A#41F000033D8A0000
(1771642820.668398) can0 00000252#0543150E14000000
(1771642820.686303) can0 0757F803#02F0000101010000
(1771642820.702934) can0 06081F82#1000004000000000
(1771642820.704395) can0 060F801A#42F0004000000000
(1771642820.710599) can0 00000461#010E88780700007C
(1771642820.723418) can0 00000322#A7010000E0953BDE
(1771642820.731493) can0 00000131#000000B569840700
(1771642820.732815) can0 00000211#0000000023000000
(1771642820.753456) can0 06081F82#1000000100000000
(1771642820.754920) can0 060F801A#41F000014357B240
(1771642820.755918) can0 06080F81#1000004000000000
(1771642820.757439) can0 060F8009#42F0004000400000
(1771642820.799494) can0 00000132#000000A0DBE70700
(1771642820.800788) can0 00000212#150E140043080000
(1771642820.804022) can0 06081F82#1000000200000000
(1771642820.805497) can0 060F801A#41F0000200000000
(1771642820.806428) can0 00000322#AF010000E0153C97
(1771642820.811004) can0 075D0003#A001100801800081
(1771642820.854596) can0 06081F82#1000004000000000
(1771642820.856103) can0 060F801A#42F0004000000000
(1771642820.862256) can0 000001B2#C1C10000A1DD2600
(1771642820.905172) can0 06081F82#1000000100000000
(1771642820.906598) can0 060F801A#41F000014357C580
(1771642820.907541) can0 00000322#AF010000E0B53C8F
(1771642820.913196) can0 0757F80B#0110100002030000
(1771642820.914300) can0 00000462#43608833418B02B1
(1771642820.933544) can0 00000131#000000B56B850700
(1771642820.934867) can0 00000211#0000000023000000
(1771642820.945006) can0 00000331#D0471F1E380000A4
(1771642820.955111) can0 00000321#07000000000C3D5C
(1771642820.956413) can0 000001A1#5A00F00400000193
(1771642820.957423) can0 06081F82#1000000200000000
(1771642820.958931) can0 060F801A#41F0000200000000
(1771642820.965214) can0 00000322#B0010000E0153DBA
(1771642820.977536) can0 00000251#6441000000000000
(1771642821.005284) can0 00000132#000000A3DFE80700
(1771642821.006259) can0 06081F82#1000004000000000
(1771642821.007568) can0 00000212#150E140070080000
(1771642821.008721) can0 060F801A#42F0004000000000
(1771642821.018523) can0 00000461#010E8880070000CF
(1771642821.056904) can0 06081F82#1000000100000000
(1771642821.058374) can0 060F801A#41F000014357D5C0
(1771642821.059329) can0 06081F82#0300002143B40000
(1771642821.060855) can0 060F801A#41F0002143B40000
(1771642821.061829) can0 06081F82#0300001B00000800
(1771642821.063398) can0 060F801A#42F0001B00000800
(1771642821.065923) can0 00000322#B0010000E0B53DA2
(1771642821.068394) can0 00000252#0543150E14000000
(1771642821.107496) can0 06080F81#1000000400000000
(1771642821.108956) can0 060F8009#41F0000441EA6600
(1771642821.109965) can0 06081F82#1000000200000000
(1771642821.111433) can0 060F801A#41F0000200000000
(1771642821.139569) can0 00000131#000000B770850700
(1771642821.140904) can0 00000211#0000000023000000
(1771642821.158087) can0 06081F82#1000000400000000
(1771642821.159555) can0 060F801A#41F000044207CC00
(1771642821.166707) can0 00000322#B0010000E0553EE8
(1771642821.183541) can0 0757F80B#02F0000102030000
(1771642821.205969) can0 0757F803#0110100001010000
(1771642821.208585) can0 06081F82#1000004000000000
(1771642821.209887) can0 00000132#000000A5E2E80700
(1771642821.211032) can0 060F801A#42F0004000000000
(1771642821.212168) can0 00000212#150E140070080000
(1771642821.223217) can0 00000462#43608833418B02B1
(1771642821.259247) can0 06081F82#1000000100000000
(1771642821.260700) can0 060F801A#41F000014357E3C0
(1771642821.267526) can0 00000322#B0010000E0F53EF0
(1771642821.308302) can0 075D000B#A001000901800000
(1771642821.310129) can0 06081F82#1000000200000000
(1771642821.311585) can0 060F801A#41F0000200000000
(1771642821.314255) can0 00000112#4553505F43010000
(1771642821.321555) can0 00000461#010E8880070000CF
(1771642821.342553) can0 00000131#000000B773850700
(1771642821.343885) can0 00000211#0000000023000000
(1771642821.360455) can0 06081F82#1000004000000000
(1771642821.361965) can0 060F801A#42F0004000000000
(1771642821.368432) can0 00000322#B0010000E0953F02
(1771642821.384660) can0 00000251#6441000000000000
(1771642821.410642) can0 06081F82#1000000100000000
(1771642821.412092) can0 060F801A#41F000014357EA80
(1771642821.415472) can0 00000172#0006000000000000
(1771642821.416832) can0 00000172#0106000000000000
(1771642821.418167) can0 00000132#000000A7E8E80700
(1771642821.419472) can0 00000212#150E140070080000
(1771642821.459501) can0 00000321#07000000002C30D1
(1771642821.461375) can0 06081F82#1000000200000000
(1771642821.462877) can0 060F801A#41F0000200000000
(1771642821.469623) can0 00000322#B0010000E0353037
(1771642821.470930) can0 00000252#0543150E14000000
(1771642821.475641) can0 00000171#0006000000000000
(1771642821.476971) can0 00000171#0106000000000000
(1771642821.478366) can0 000001B1#02D00700B878F000
(1771642821.512056) can0 06081F82#1000004000000000
(1771642821.513553) can0 060F801A#42F0004000000000
(1771642821.532316) can0 00000462#43608833418B02B1
(1771642821.549651) can0 00000131#000000B879850700
(1771642821.551116) can0 00000211#0000000023000000
(1771642821.562931) can0 06081F82#1000000100000000
(1771642821.564405) can0 060F801A#41F000014357F080
(1771642821.565405) can0 06080F81#1000004000000000
(1771642821.566899) can0 060F8009#42F0004000400000
(1771642821.567858) can0 06081F82#0300002143B40000
(1771642821.569331) can0 060F801A#41F0002143B40000
(1771642821.570319) can0 06081F82#0300001B00000800
(1771642821.571814) can0 060F801A#42F0001B00000800
(1771642821.572764) can0 00000322#B0010000E0D53074
(1771642821.601094) can0 075D0003#10F003C002000000
(1771642821.614241) can0 06081F82#1000000200000000
(1771642821.615705) can0 060F801A#41F0000200000000
(1771642821.622650) can0 00000461#010E8880070000CF
(1771642821.623772) can0 00000132#000000A9ECE80700
(1771642821.625243) can0 00000212#150E140070080000
(1771642821.664484) can0 06081F82#1000000300000000
(1771642821.665917) can0 060F801A#41F000033D8A0000
(1771642821.671207) can0 00000322#B0010000E075316B
(1771642821.686267) can0 00000402#E807000000000000
(1771642821.687542) can0 00000422#AA180000EFAC0000
(1771642821.703196) can0 0757F80B#0110100002030000
(1771642821.715547) can0 06081F82#1000004000000000
(1771642821.717024) can0 060F801A#42F0004000000000
(1771642821.753530) can0 00000131#000000B87C850700
(1771642821.754896) can0 00000211#0000000023000000
(1771642821.766141) can0 06081F82#1000000100000000
(1771642821.767559) can0 060F801A#41F000014357F640
(1771642821.772033) can0 00000322#B0010000E0153297
(1771642821.785547) can0 00000251#6441000000000000
(1771642821.816680) can0 06081F82#1000000200000000
(1771642821.818125) can0 060F801A#41F0000200000000
(1771642821.828329) can0 00000132#000000ABF0E80700
(1771642821.829656) can0 00000212#150E140070080000
(1771642821.840241) can0 00000462#43608833418B02B1
(1771642821.867312) can0 06081F82#1000004000000000
(1771642821.868777) can0 060F801A#42F0004000000000
(1771642821.871414) can0 00000252#0543150E14000000
(1771642821.872806) can0 000001B2#21210000ABF42600
(1771642821.873761) can0 00000322#B0010000E0B5328F
(1771642821.913171) can0 00000332#D05740803A0000B4
(1771642821.917502) can0 06081F82#1000000100000000
(1771642821.918936) can0 060F801A#41F000014357F940
(1771642821.924215) can0 000001A2#5A002705000002C8
(1771642821.926605) can0 00000461#010E8880070000CF
(1771642821.957522) can0 00000131#000000B880860700
(1771642821.958843) can0 00000211#0000000023000000
(1771642821.963563) can0 00000321#07000000004C332D
(1771642821.968478) can0 06081F82#1000000200000000
(1771642821.969960) can0 060F801A#41F0000200000000
(1771642821.973695) can0 00000322#B0010000E05533CB
(1771642821.996083) can0 0757F803#0110100001010000
(1771642822.019050) can0 06081F82#1000004000000000
(1771642822.020542) can0 060F801A#42F0004000000000
(1771642822.035256) can0 00000132#000000AEF6E90700
(1771642822.036547) can0 00000212#150E140070080000
(1771642822.039548) can0 00000231#1027D00758020000
(1771642822.040985) can0 00000221#2300000000644100
(1771642822.042336) can0 00000201#1027D00758020000
(1771642822.069692) can0 06081F82#1000000100000000
(1771642822.071160) can0 060F801A#41F000014357FB00
(1771642822.072106) can0 06081F82#0300002143B40000
(1771642822.073674) can0 060F801A#41F0002143B40000
(1771642822.074634) can0 06081F82#0300001B00000800
(1771642822.076140) can0 060F801A#42F0001B00000800
(1771642822.077084) can0 00000322#B0010000E0F533D3
(1771642822.098454) can0 075D000B#10F003C048000000
(1771642822.120257) can0 06081F82#1000000200000000
(1771642822.121730) can0 060F801A#41F0000200000000
(1771642822.147688) can0 00000462#4360883B418B0201
(1771642822.163524) can0 00000131#000000B985860700
(1771642822.164849) can0 00000211#0000000023000000
(1771642822.170827) can0 06081F82#1000000400000000
(1771642822.172290) can0 060F801A#41F000044207CC00
(1771642822.175234) can0 00000322#B0010000E0953433
(1771642822.185624) can0 00000251#6441000000000000
(1771642822.221374) can0 06081F82#1000004000000000
(1771642822.222875) can0 060F801A#42F0004000000000
(1771642822.226667) can0 00000461#010E8880070000CF
(1771642822.239248) can0 00000132#000000B0F9E90700
(1771642822.240534) can0 00000212#150E140070080000
(1771642822.251300) can0 00000222#7008000008054300
(1771642822.252638) can0 00000202#1027140005000000
(1771642822.271940) can0 06081F82#1000000100000000
(1771642822.273223) can0 00000252#0543150E14000000
(1771642822.274346) can0 060F801A#41F00001436874C0
(1771642822.276087) can0 00000322#B0010000E035352C
(1771642822.322499) can0 06081F82#1000000200000000
(1771642822.324034) can0 060F801A#41F0000200000000
(1771642822.327601) can0 000001C1#01005E0100000000
(1771642822.336530) can0 00000322#D1010000E095350F
(1771642822.368533) can0 00000131#000000B98A860700
(1771642822.369861) can0 00000211#0000000023000000
(1771642822.373079) can0 06081F82#1000004000000000
(1771642822.374589) can0 060F801A#42F0004000000000
(1771642822.375592) can0 06080F81#1000004000000000
(1771642822.377066) can0 060F8009#42F0004000400000
(1771642822.391090) can0 0757F803#0110100001010000
(1771642822.410553) can0 00090001#0100001B7D000000
(1771642822.423636) can0 06081F82#1000000100000000
(1771642822.424970) can0 00000172#0006000000000000
(1771642822.426109) can0 060F801A#41F0000143802A80
(1771642822.427312) can0 00000172#0106000000000000
(1771642822.428630) can0 000001C2#01005E0100000000
(1771642822.429981) can0 00000232#1027140005000000
(1771642822.437269) can0 00000322#D1010000E035361E
(1771642822.441218) can0 00000132#000000B302E90700
(1771642822.442543) can0 00000212#150E140015090000
(1771642822.447337) can0 00000331#D0471F1E380000A4
(1771642822.451576) can0 000001A1#5A00F104000001F1
(1771642822.453257) can0 00000462#4360883B418B0201
(1771642822.471103) can0 00000321#07000000006C3698
(1771642822.474220) can0 06081F82#1000000200000000
(1771642822.475683) can0 060F801A#41F0000200000000
(1771642822.482567) can0 00000171#0006000000000000
(1771642822.483886) can0 00000171#0106000000000000
(1771642822.485166) can0 000001B1#66340700BB90F100
(1771642822.493451) can0 0757F80B#0110000002030000
(1771642822.501429) can0 00000322#01020000E0953661
(1771642822.524284) can0 00090002#0100001B7D000000
(1771642822.525274) can0 06081F82#1000004000000000
(1771642822.526669) can0 00000461#010E88880700007F
(1771642822.527839) can0 060F801A#42F0004000000000
(1771642822.574937) can0 06081F82#1000000100000000
(1771642822.576424) can0 060F801A#41F00001438E82A0
(1771642822.577546) can0 00000131#000000BB92860700
(1771642822.578509) can0 06081F82#0300002143B40000
(1771642822.579855) can0 00000211#0000000023000000
(1771642822.580836) can0 06081F82#0300001B00000800
(1771642822.582159) can0 060F801A#41F0002143B40000
(1771642822.583307) can0 060F801A#42F0001B00000800
(1771642822.590563) can0 00000251#6441000000000000
(1771642822.602134) can0 00000322#01020000E035377E
(1771642822.626204) can0 06080F81#1000000400000000
(1771642822.627673) can0 060F8009#41F0000441EA6600
(1771642822.628666) can0 06081F82#1000000200000000
(1771642822.630177) can0 060F801A#41F0000200000000
(1771642822.645280) can0 00000132#000000B506E90700
(1771642822.646603) can0 00000212#150E1400050A0000
(1771642822.662550) can0 00000322#3A020000E0953798
(1771642822.676311) can0 06081F82#1000000300000000
(1771642822.677586) can0 00000252#0543150E14000000
(1771642822.678721) can0 060F801A#41F000033D8A0000
(1771642822.726967) can0 06081F82#1000004000000000
(1771642822.728532) can0 060F801A#42F0004000000000
(1771642822.758258) can0 00000462#4360883B418B0201
(1771642822.763257) can0 00000322#3A020000E03538AD
(1771642822.778031) can0 06081F82#1000000100000000
(1771642822.779516) can0 060F801A#41F0000143A071C0
(1771642822.781649) can0 00000131#000000BB95860700
(1771642822.783015) can0 00000211#0000000023000000
(1771642822.785953) can0 0757F803#0110100001010000
(1771642822.828173) can0 06081F82#1000000200000000
(1771642822.829693) can0 060F801A#41F0000200000000
(1771642822.833534) can0 00000461#010E88880700007F
(1771642822.834480) can0 00000322#82020000E0A5385E
(1771642822.849272) can0 00000132#000000B80AE90700
(1771642822.850638) can0 00000212#150E14008A0C0000
(1771642822.871304) can0 000001B2#8A8A0000B80C2700
(1771642822.878890) can0 06081F82#1000004000000000
(1771642822.880416) can0 060F801A#42F0004000000000
(1771642822.888337) can0 0757F80B#0110000002030000
(1771642822.929532) can0 06081F82#1000000100000000
(1771642822.930986) can0 060F801A#41F0000143AC4AA0
(1771642822.934451) can0 00000322#82020000E045391A
(1771642822.974792) can0 00000321#07000000008C39F6
(1771642822.980120) can0 06081F82#1000000200000000
(1771642822.981649) can0 060F801A#41F0000200000000
(1771642822.984596) can0 00000131#000000BC98870700
(1771642822.985965) can0 00000211#0000000023000000
(1771642822.994919) can0 00000322#B1020000E0A5394D
(1771642822.996583) can0 00000251#6441000000000000
(1771642823.030738) can0 06081F82#1000004000000000
(1771642823.032227) can0 060F801A#42F0004000000000
(1771642823.052238) can0 00000132#000000BA0DEA0700
(1771642823.053531) can0 00000212#150E1400750D0000
(1771642823.064658) can0 00000462#4360883B418B0201
(1771642823.081370) can0 06081F82#1000000100000000
(1771642823.082804) can0 060F801A#41F0000143B2F000
(1771642823.083763) can0 06081F82#0300002143B40000
(1771642823.085291) can0 060F801A#41F0002143B40000
(1771642823.086405) can0 00000252#0543150E14000000
(1771642823.087394) can0 06081F82#0300001B00000800
(1771642823.088905) can0 060F801A#42F0001B00000800
(1771642823.095620) can0 00000322#B1020000E0453A07
(1771642823.132564) can0 06081F82#1000000200000000
(1771642823.134065) can0 060F801A#41F0000200000000
(1771642823.137546) can0 00000461#010E88880700007F
(1771642823.155999) can0 00000322#CC020000E0A53A33
(1771642823.181034) can0 0757F803#0110100001010000
(1771642823.182900) can0 06081F82#1000000400000000
(1771642823.184349) can0 060F801A#41F000044207CC00
(1771642823.185347) can0 06080F81#1000004000000000
(1771642823.186875) can0 060F8009#42F0004000400000
(1771642823.188553) can0 00000131#000000BC9C870700
(1771642823.190018) can0 00000211#0000000023000000
(1771642823.233845) can0 06081F82#1000004000000000
(1771642823.235381) can0 060F801A#42F0004000000000
(1771642823.256702) can0 00000322#CC020000E0453B77
(1771642823.258020) can0 00000132#000000BC11EA0700
(1771642823.259694) can0 00000212#150E1400FC0D0000
(1771642823.283427) can0 0757F80B#0110000002030000
(1771642823.284404) can0 06081F82#1000000100000000
(1771642823.285839) can0 060F801A#41F0000143B3CBA0
(1771642823.335147) can0 06081F82#1000000200000000
(1771642823.337699) can0 060F801A#41F0000200000000
(1771642823.337913) can0 00000322#CF020000E0C53BA7
(1771642823.370311) can0 00000462#4360883B418B0201
(1771642823.385540) can0 06081F82#1000004000000000
(1771642823.387026) can0 060F801A#42F0004000000000
(1771642823.390652) can0 00000131#000000BC9E870700
(1771642823.391960) can0 00000211#0000000023000000
(1771642823.402707) can0 00000251#6441000000000000
(1771642823.418237) can0 00000332#D05740803A0000B4
(1771642823.421563) can0 000001A2#5A002805000002F8
(1771642823.432315) can0 00000172#0006000000000000
(1771642823.433737) can0 00000172#0106000000000000
(1771642823.436807) can0 06081F82#1000000100000000
(1771642823.438426) can0 060F801A#41F0000143B3DAE0
(1771642823.439340) can0 00000322#CF020000E0653CAA
(1771642823.443710) can0 00000461#010E88880700007F
(1771642823.464298) can0 00000132#000000C017EA0700
(1771642823.465602) can0 00000212#150E14000B0E0000
(1771642823.479353) can0 00000321#0700000000AC3C43
(1771642823.484746) can0 00000171#0006000000000000
(1771642823.486210) can0 00000171#0106000000000000
(1771642823.487322) can0 00000252#0543150E14000000
(1771642823.488428) can0 000001B1#CA980700BDA4F100
(1771642823.490333) can0 06081F82#1000000200000000
(1771642823.491817) can0 060F801A#41F0000200000000
(1771642823.540801) can0 00000322#CF020000E0053D58
(1771642823.542602) can0 06081F82#1000004000000000
(1771642823.544123) can0 060F801A#42F0004000000000
(1771642823.576041) can0 0757F803#0110100001010000
(1771642823.593438) can0 06081F82#1000000100000000
(1771642823.594859) can0 060F801A#41F0000143B3E520
(1771642823.595815) can0 06081F82#0300002143B40000
(1771642823.597326) can0 060F801A#41F0002143B40000
(1771642823.598302) can0 06081F82#0300001B00000800
(1771642823.599622) can0 00000131#000000BDA5870700
(1771642823.600760) can0 060F801A#42F0001B00000800
(1771642823.601933) can0 00000211#0000000023000000
(1771642823.641403) can0 00000322#CF020000E0A53D40
(1771642823.644630) can0 06081F82#1000000200000000
(1771642823.646155) can0 060F801A#41F0000200000000
(1771642823.668362) can0 00000132#000000C21AEA0700
(1771642823.669639) can0 00000212#150E14000B0E0000
(1771642823.678290) can0 0757F80B#0110000002030000
(1771642823.680203) can0 00000462#43608843418B0283
(1771642823.694736) can0 06081F82#1000000300000000
(1771642823.696217) can0 060F801A#41F000033D8A0000
(1771642823.701958) can0 00000322#D0020000E0053E7B
(1771642823.721337) can0 0757F803#02F0000101010000
(1771642823.745883) can0 06081F82#1000004000000000
(1771642823.747413) can0 060F801A#42F0004000000000
(1771642823.752553) can0 00000461#010E88880700007F
(1771642823.796459) can0 06081F82#1000000100000000
(1771642823.797910) can0 060F801A#41F0000143B3ED60
(1771642823.802692) can0 00000322#D0020000E0A53E63
(1771642823.804034) can0 00000251#6441000000000000
(1771642823.805387) can0 00000131#000000BDA9870700
(1771642823.806722) can0 00000211#0000000023000000
(1771642823.846994) can0 06081F82#1000000200000000
(1771642823.848854) can0 060F801A#41F0000200000000
(1771642823.871239) can0 000001B2#EAEA0000C41D2800
(1771642823.872516) can0 00000132#000000C41EEA0700
(1771642823.873834) can0 00000212#150E1400100E0000
(1771642823.895259) can0 00000252#0543150E14000000
(1771642823.897275) can0 06081F82#1000004000000000
(1771642823.898801) can0 060F801A#42F0004000000000
(1771642823.903393) can0 00000322#D0020000E0453F27
(1771642823.948077) can0 06081F82#1000000100000000
(1771642823.949562) can0 060F801A#41F0000143B3F100
(1771642823.953751) can0 00000331#D0471F1E380000A4
(1771642823.957593) can0 000001A1#5A00F20400000157
(1771642823.971040) can0 075D0003#A001100801800081
(1771642823.984010) can0 00000321#0700000000CC3FBF
(1771642823.986255) can0 00000462#43608843418B0283
(1771642823.998678) can0 06081F82#1000000200000000
(1771642824.000192) can0 060F801A#41F0000200000000
(1771642824.001195) can0 06080F81#1000004000000000
(1771642824.002724) can0 060F8009#42F0004000400000
(1771642824.004473) can0 00000322#D0020000E0E53F3F
(1771642824.008617) can0 00000131#000000BFAC880700
(1771642824.009966) can0 00000211#0000000023000000
(1771642824.040659) can0 00000231#1027D00758020000
(1771642824.041989) can0 00000221#2300000000644100
(1771642824.043350) can0 00000201#1027D00758020000
(1771642824.049168) can0 06081F82#1000004000000000
(1771642824.050710) can0 060F801A#42F0004000000000
(1771642824.054542) can0 00000461#010E8890070000A8
(1771642824.073323) can0 0757F80B#0110000002030000
(1771642824.077307) can0 00000132#000000C622EB0700
(1771642824.078658) can0 00000212#150E1400100E0000
(1771642824.099873) can0 06081F82#1000000100000000
(1771642824.101376) can0 060F801A#41F0000143B3F400
(1771642824.102331) can0 06081F82#0300002143B40000
(1771642824.103830) can0 060F801A#41F0002143B40000
(1771642824.104811) can0 06081F82#0300001B00000800
(1771642824.106318) can0 060F801A#42F0001B00000800
(1771642824.107268) can0 00000322#D0020000E08530E7
(1771642824.150684) can0 06080F81#1000000400000000
(1771642824.152119) can0 060F8009#41F0000441EA6600
(1771642824.153124) can0 06081F82#1000000200000000
(1771642824.154621) can0 060F801A#41F0000200000000
(1771642824.201276) can0 06081F82#1000000400000000
(1771642824.202754) can0 060F801A#41F000044207CC00
(1771642824.205528) can0 00000251#6441000000000000
(1771642824.206477) can0 00000322#D0020000E02531F8
(1771642824.216650) can0 00000131#000000BFB3880700
(1771642824.218157) can0 00000211#0000000023000000
(1771642824.219299) can0 0757F80B#02F0000102030000
(1771642824.251787) can0 06081F82#1000004000000000
(1771642824.253553) can0 060F801A#42F0004000000000
(1771642824.259268) can0 00000222#100E000008054300
(1771642824.260586) can0 00000202#1027140005000000
(1771642824.281368) can0 00000132#000000C826EB0700
(1771642824.282699) can0 00000212#150E1400100E0000
(1771642824.293233) can0 00000462#43608843418B0283
(1771642824.302340) can0 06081F82#1000000100000000
(1771642824.303808) can0 060F801A#41F0000143B3F640
(1771642824.304928) can0 00000252#0543150E14000000
(1771642824.306660) can0 00000322#D0020000E0C531BB
(1771642824.329590) can0 000001C1#01005E0100000000
(1771642824.352892) can0 06081F82#1000000200000000
(1771642824.354384) can0 060F801A#41F0000200000000
(1771642824.360634) can0 00000461#010E8890070000A8
(1771642824.366016) can0 0757F803#0110100001010000
(1771642824.404487) can0 06081F82#1000004000000000
(1771642824.406234) can0 060F801A#42F0004000000000
(1771642824.408753) can0 00000322#D0020000E06532AA
(1771642824.412050) can0 00090001#0100001B7D000000
(1771642824.422995) can0 00000131#000000BFB8880700
(1771642824.424405) can0 00000211#0000000023000000
(1771642824.426678) can0 000001C2#01005E0100000000
(1771642824.428006) can0 00000232#1027140005000000
(1771642824.438763) can0 00000172#0006000000000000
(1771642824.440094) can0 00000172#0106000000000000
(1771642824.455380) can0 06081F82#1000000100000000
(1771642824.457052) can0 060F801A#41F0000143B3F740
(1771642824.468833) can0 075D000B#A001000901820000
(1771642824.484980) can0 00000171#0006000000000000
(1771642824.486347) can0 00000171#0106000000000000
(1771642824.488193) can0 000001B1#FCFC0700BFBCF200
(1771642824.488963) can0 00000321#0700000000EC3232
(1771642824.490665) can0 00000132#000000CA2EEB0700
(1771642824.491983) can0 00000212#150E1400100E0000
(1771642824.506192) can0 06081F82#1000000200000000
(1771642824.507921) can0 060F801A#41F0000200000000
(1771642824.508660) can0 00000322#D0020000E0053358
(1771642824.532708) can0 00090002#0100001B7D000000
(1771642824.556470) can0 06081F82#1000004000000000
(1771642824.558146) can0 060F801A#42F0004000000000
(1771642824.593890) can0 00000462#43608843418B0283
(1771642824.608290) can0 06081F82#1000000100000000
(1771642824.609691) can0 00000251#6441000000000000
(1771642824.610570) can0 06081F82#0300002143B40000
(1771642824.611977) can0 060F801A#41F0000143B3F820
(1771642824.612886) can0 06081F82#0300001B00000800
(1771642824.614319) can0 060F801A#41F0002143B40000
(1771642824.615175) can0 00000322#D0020000E0A53340
(1771642824.616585) can0 060F801A#42F0001B00000800
(1771642824.630751) can0 00000131#000000C0BE880700
(1771642824.632098) can0 00000211#0000000023000000
(1771642824.658968) can0 06081F82#1000000200000000
(1771642824.660512) can0 060F801A#41F0000200000000
(1771642824.662749) can0 00000461#010E8890070000A8
(1771642824.694725) can0 00000132#000000CC32EB0700
(1771642824.696088) can0 00000212#150E1400100E0000
(1771642824.707575) can0 00000252#0543150E14000000
(1771642824.709939) can0 06081F82#1000000300000000
(1771642824.711535) can0 060F801A#41F000033D8A0000
(1771642824.712342) can0 00000322#D0020000E0453416
(1771642824.760945) can0 06081F82#1000004000000000
(1771642824.762429) can0 0757F803#0110100001010000
(1771642824.763578) can0 060F801A#42F0004000000000
(1771642824.812213) can0 06081F82#1000000100000000
(1771642824.813923) can0 060F801A#41F0000143B3F880
(1771642824.814675) can0 06080F81#1000004000000000
(1771642824.816548) can0 060F8009#42F0004000400000
(1771642824.817296) can0 00000322#D0020000E0E5340E
(1771642824.834110) can0 00000131#000000C0C1890700
(1771642824.835434) can0 00000211#0000000023000000
(1771642824.863206) can0 06081F82#1000000200000000
(1771642824.864763) can0 0757F80B#0110000002030000
(1771642824.865944) can0 060F801A#41F0000200000000
(1771642824.878667) can0 000001B2#4E4E0000CE352800
(1771642824.899894) can0 00000462#43608843418B0283
(1771642824.901247) can0 00000132#000000CE37EB0700
(1771642824.902628) can0 00000212#150E1400100E0000
(1771642824.913957) can0 06081F82#1000004000000000
(1771642824.915646) can0 060F801A#42F0004000000000
(1771642824.916410) can0 00000322#D0020000E08535FC
(1771642824.924213) can0 00000332#D05740803A0000B4
(1771642824.933624) can0 000001A2#5A0029050000029A
(1771642824.965106) can0 06081F82#1000000100000000
(1771642824.966614) can0 00000461#010E8890070000A8
(1771642824.967729) can0 060F801A#41F0000143B3F8A0
(1771642824.995449) can0 00000321#07000000000C366D
(1771642825.016021) can0 06081F82#1000000200000000
(1771642825.017727) can0 060F801A#41F0000200000000
(1771642825.018884) can0 00000251#6441000000000000
(1771642825.019647) can0 00000322#D0020000E02536ED
(1771642825.039910) can0 00000131#000000C1C5890700
(1771642825.041227) can0 00000211#0000000023000000
(1771642825.066267) can0 06081F82#1000004000000000
(1771642825.067896) can0 060F801A#42F0004000000000
(1771642825.104691) can0 00000132#000000D13AEC0700
(1771642825.106005) can0 00000212#150E1400100E0000
(1771642825.117063) can0 00000252#0543150E14000000
(1771642825.119713) can0 06081F82#1000000100000000
(1771642825.121409) can0 060F801A#41F0000143B3F8A0
(1771642825.122175) can0 00000322#D0020000E0C536AE
(1771642825.124532) can0 06081F82#0300002143B40000
(1771642825.126281) can0 060F801A#41F0002143B40000
(1771642825.127065) can0 06081F82#0300001B00000800
(1771642825.128964) can0 060F801A#42F0001B00000800
(1771642825.156603) can0 0757F803#0110100001010000
(1771642825.170072) can0 06081F82#1000000200000000
(1771642825.171783) can0 060F801A#41F0000200000000
(1771642825.207715) can0 00000462#4360884B418B0233
(1771642825.219632) can0 00000322#D0020000E06537B1
(1771642825.222104) can0 06081F82#1000000400000000
(1771642825.223867) can0 060F801A#41F000044207CC00
(1771642825.242006) can0 00000131#000000C1C7890700
(1771642825.243332) can0 00000211#0000000023000000
(1771642825.258721) can0 0757F80B#0110000002030000
(1771642825.271701) can0 06081F82#1000004000000000
(1771642825.273443) can0 060F801A#42F0004000000000
(1771642825.274622) can0 00000461#010E8890070000A8
(1771642825.309115) can0 00000132#000000D33EEC0700
(1771642825.310515) can0 00000212#150E1400100E0000
(1771642825.320660) can0 00000322#D0020000E0053869
(1771642825.323091) can0 06081F82#1000000100000000
(1771642825.324791) can0 060F801A#41F0000143B3F8A0
(1771642825.373833) can0 06081F82#1000000200000000
(1771642825.375490) can0 060F801A#41F0000200000000
(1771642825.421800) can0 00000322#D0020000E0A53871
(1771642825.425467) can0 06081F82#1000004000000000
(1771642825.426984) can0 00000251#6441000000000000
(1771642825.428134) can0 060F801A#42F0004000000000
(1771642825.442050) can0 00000172#0006000000000000
(1771642825.443654) can0 00000172#0106000000000000
(1771642825.447907) can0 00000131#000000C1CB890700
(1771642825.449282) can0 00000211#0000000023000000
(1771642825.462174) can0 00000331#D0471F1E380000A4
(1771642825.469866) can0 000001A1#5A00F30400000135
(1771642825.476387) can0 06081F82#1000000100000000
(1771642825.478004) can0 060F801A#41F0000143B3F8A0
(1771642825.490948) can0 00000171#0006000000000000
(1771642825.492297) can0 00000171#0106000000000000
(1771642825.493609) can0 000001B1#60600700C2D0F300
(1771642825.502810) can0 00000321#07000000002C39EE
(1771642825.514793) can0 00000462#4360884B418B0233
(1771642825.516121) can0 00000132#000000D543EC0700
(1771642825.517488) can0 00000212#150E1400100E0000
(1771642825.523094) can0 00000322#D0020000E0453935
(1771642825.527359) can0 06081F82#1000000200000000
(1771642825.528871) can0 00000252#0543150E14000000
(1771642825.530055) can0 060F801A#41F0000200000000
(1771642825.551689) can0 075D0003#10F003C002000000
(1771642825.575219) can0 00000461#010E889807000018
(1771642825.578448) can0 06081F82#1000004000000000
(1771642825.580166) can0 060F801A#42F0004000000000
(1771642825.623965) can0 00000322#D0020000E0E5392D
(1771642825.629511) can0 06081F82#1000000100000000
(1771642825.631178) can0 060F801A#41F0000143B3F8A0
(1771642825.631980) can0 06080F81#1000004000000000
(1771642825.633648) can0 060F8009#42F0004000400000
(1771642825.634416) can0 06081F82#0300002143B40000
(1771642825.636094) can0 060F801A#41F0002143B40000
(1771642825.636888) can0 06081F82#0300001B00000800
(1771642825.638784) can0 060F801A#42F0001B00000800
(1771642825.653886) can0 0757F80B#0110000002030000
(1771642825.656055) can0 00000131#000000C3D2890700
(1771642825.657487) can0 00000211#0000000023000000
(1771642825.680516) can0 06080F81#1000000400000000
(1771642825.682155) can0 060F8009#41F0000441EA6600
(1771642825.682963) can0 06081F82#1000000200000000
(1771642825.684680) can0 060F801A#41F0000200000000
(1771642825.719289) can0 00000132#000000D746EC0700
(1771642825.720671) can0 00000212#150E1400100E0000
(1771642825.725485) can0 00000322#D0020000E0853AD1
(1771642825.730487) can0 06081F82#1000000300000000
(1771642825.731981) can0 060F801A#41F000033D8A0000
(1771642825.781117) can0 06081F82#1000004000000000
(1771642825.782650) can0 060F801A#42F0004000000000
(1771642825.821298) can0 00000462#4260884B418B02EC
(1771642825.826358) can0 00000322#D0020000E0253BCE
(1771642825.828545) can0 00000251#6441000000000000
(1771642825.831606) can0 06081F82#1000000100000000
(1771642825.833114) can0 060F801A#41F0000143B3F8A0
(1771642825.859574) can0 00000131#000000C3D58A0700
(1771642825.860927) can0 00000211#0000000023000000
(1771642825.881672) can0 00000461#010E889807000018
(1771642825.882741) can0 000001B2#B2B20000D9492900
(1771642825.883751) can0 06081F82#1000000200000000
(1771642825.885238) can0 060F801A#41F0000200000000
(1771642825.923268) can0 00000132#000000D94AEC0700
(1771642825.924564) can0 00000212#150E1400100E0000
(1771642825.927038) can0 00000322#D0020000E0C53B8D
(1771642825.932693) can0 06081F82#1000004000000000
(1771642825.934194) can0 060F801A#42F0004000000000
(1771642825.935315) can0 00000252#0542150E14000000
(1771642825.946030) can0 0757F803#0110100001010000
(1771642825.982813) can0 06081F82#1000000100000000
(1771642825.984303) can0 060F801A#41F0000143B3F8A0
(1771642826.007687) can0 00000321#07000000004C3C00
(1771642826.027844) can0 00000322#D0020000E0653C80
(1771642826.033438) can0 06081F82#1000000200000000
(1771642826.034949) can0 060F801A#41F0000200000000
(1771642826.042565) can0 00000231#1027D00758020000
(1771642826.043859) can0 00000221#2300000000644100
(1771642826.045188) can0 00000201#1027D00758020000
(1771642826.048537) can0 075D000B#10F003C048000000
(1771642826.066605) can0 00000131#000000C4DB8A0700
(1771642826.068040) can0 00000211#0000000023000000
(1771642826.084065) can0 06081F82#1000004000000000
(1771642826.085603) can0 060F801A#42F0004000000000
(1771642826.126325) can0 00000462#4260884B418B02EC
(1771642826.127711) can0 00000132#000000DB4EED0700
(1771642826.128664) can0 00000322#D0020000E0053D72
(1771642826.129975) can0 00000212#150E1400100E0000
(1771642826.134642) can0 06081F82#1000000100000000
(1771642826.136127) can0 060F801A#41F0000143B3F8A0
(1771642826.137086) can0 06081F82#0300002143B40000
(1771642826.138616) can0 060F801A#41F0002143B40000
(1771642826.139613) can0 06081F82#0300001B00000800
(1771642826.141113) can0 060F801A#42F0001B00000800
(1771642826.185387) can0 06081F82#1000000200000000
(1771642826.186880) can0 060F801A#41F0000200000000
(1771642826.188564) can0 00000461#010E889807000018
(1771642826.229264) can0 00000322#D0020000E0A53D6A
(1771642826.230592) can0 00000251#6441000000000000
(1771642826.235947) can0 06081F82#1000000400000000
(1771642826.237456) can0 060F801A#41F000044207CC00
(1771642826.261347) can0 00000222#100E000008054200
(1771642826.262692) can0 00000202#1027140005000000
(1771642826.271508) can0 00000131#000000C4DF8A0700
(1771642826.272907) can0 00000211#0000000023000000
(1771642826.286561) can0 06081F82#1000004000000000
(1771642826.288045) can0 060F801A#42F0004000000000
(1771642826.329988) can0 00000322#D0020000E0453E20
(1771642826.333300) can0 00000132#000000DE52ED0700
(1771642826.334458) can0 000001C1#01005E0100000000
(1771642826.335593) can0 00000212#150E1400100E0000
(1771642826.337407) can0 06081F82#1000000100000000
(1771642826.338906) can0 060F801A#41F0000143B3F8A0
(1771642826.341119) can0 0757F803#0110100001010000
(1771642826.346241) can0 00000252#0542150E14000000
(1771642826.388293) can0 06081F82#1000000200000000
(1771642826.389804) can0 060F801A#41F0000200000000
(1771642826.415616) can0 00090001#0100001B7D000000
(1771642826.427222) can0 00000462#4260884B418B02EC
(1771642826.428551) can0 000001C2#01005E0100000000
(1771642826.429927) can0 00000232#1027140005000000
(1771642826.430880) can0 00000322#D0020000E0E53E38
(1771642826.432538) can0 00000332#D05740803A0000B4
(1771642826.438807) can0 06081F82#1000004000000000
(1771642826.440315) can0 060F801A#42F0004000000000
(1771642826.441459) can0 000001A2#5A002A050000023C
(1771642826.442433) can0 06080F81#1000004000000000
(1771642826.443774) can0 00000172#0006000000000000
(1771642826.444933) can0 060F8009#42F0004000400000
(1771642826.446111) can0 00000172#0106000000000000
(1771642826.447277) can0 0757F80B#0110000002030000
(1771642826.476541) can0 00000131#000000C4E38A0700
(1771642826.477853) can0 00000211#0000000023000000
(1771642826.488631) can0 00000461#010E889807000018
(1771642826.489634) can0 06081F82#1000000100000000
(1771642826.491092) can0 060F801A#41F0000143B3F8A0
(1771642826.499580) can0 00000171#0006000000000000
(1771642826.500919) can0 00000171#0106000000000000
(1771642826.502284) can0 000001B1#C4C40700C4E8F300
(1771642826.511405) can0 00000321#07000000006C3FA7
(1771642826.531539) can0 00000322#D0020000E0853FCA
(1771642826.537267) can0 00000132#000000E15BED0700
(1771642826.538891) can0 00090002#0100001B7D000000
(1771642826.539910) can0 00000212#150E1400100E0000
(1771642826.540936) can0 06081F82#1000000200000000
(1771642826.542427) can0 060F801A#41F0000200000000
(1771642826.590468) can0 06081F82#1000004000000000
(1771642826.591947) can0 060F801A#42F0004000000000
(1771642826.632274) can0 00000322#D0020000E02530FF
(1771642826.633723) can0 00000251#6441000000000000
(1771642826.641077) can0 06081F82#1000000100000000
(1771642826.642531) can0 060F801A#41F0000143B3F8A0
(1771642826.643467) can0 06081F82#0300002143B40000
(1771642826.644986) can0 060F801A#41F0002143B40000
(1771642826.645974) can0 06081F82#0300001B00000800
(1771642826.647464) can0 060F801A#42F0001B00000800
(1771642826.684537) can0 00000131#000000C5EA8A0700
(1771642826.685857) can0 00000211#0000000023000000
(1771642826.691618) can0 06081F82#1000000200000000
(1771642826.693096) can0 060F801A#41F0000200000000
(1771642826.731378) can0 00000462#42608853418B023B
(1771642826.733171) can0 00000322#D0020000E0C530BC
(1771642826.736007) can0 0757F803#0110100001010000
(1771642826.742296) can0 00000132#000000E35FED0700
(1771642826.743274) can0 06081F82#1000000300000000
(1771642826.744572) can0 00000212#150E1400100E0000
(1771642826.745724) can0 060F801A#41F000033D8A0000
(1771642826.755421) can0 00000252#0542150E14000000
(1771642826.756561) can0 0757F803#02F0000101010000
(1771642826.792822) can0 06081F82#1000004000000000
(1771642826.794353) can0 060F801A#42F0004000000000
(1771642826.796740) can0 00000461#010E889807000018
(1771642826.833912) can0 00000322#D0020000E06531A3
(1771642826.838384) can0 0757F80B#0110000002030000
(1771642826.843389) can0 06081F82#1000000100000000
(1771642826.844835) can0 060F801A#41F0000143B3F8A0
(1771642826.886395) can0 000001B2#16160000E4622A00
(1771642826.887523) can0 00000131#000000C5ED8B0700
(1771642826.888874) can0 00000211#0000000023000000
(1771642826.893881) can0 06081F82#1000000200000000
(1771642826.895396) can0 060F801A#41F0000200000000
(1771642826.934591) can0 00000322#D0020000E005325F
(1771642826.944519) can0 06081F82#1000004000000000
(1771642826.945990) can0 060F801A#42F0004000000000
(1771642826.947322) can0 00000132#000000E563ED0700
(1771642826.948682) can0 00000212#150E1400100E0000
(1771642826.964787) can0 00000331#D0471F1E380000A4
(1771642826.969470) can0 000001A1#5A00F4040000011C
(1771642826.995091) can0 06081F82#1000000100000000
(1771642826.996582) can0 060F801A#41F0000143B3F8A0
(1771642827.015191) can0 00000321#07000000008C32C7
(1771642827.035315) can0 00000322#D0020000E0A53247
(1771642827.039390) can0 00000462#42608853418B023B
(1771642827.040770) can0 00000251#6441000000000000
(1771642827.045720) can0 06081F82#1000000200000000
(1771642827.047204) can0 060F801A#41F0000200000000
(1771642827.091594) can0 00000131#000000C7F18B0700
(1771642827.093009) can0 00000211#0000000023000000
(1771642827.096213) can0 06081F82#1000004000000000
(1771642827.097739) can0 060F801A#42F0004000000000
(1771642827.103507) can0 00000461#010E88A007000001
(1771642827.131094) can0 075D0003#A001100801800081
(1771642827.136083) can0 00000322#D0020000E0453303
(1771642827.146945) can0 06081F82#1000000100000000
(1771642827.148709) can0 060F801A#41F0000143B3F8A0
(1771642827.149676) can0 06081F82#0300002143B40000
(1771642827.150983) can0 00000132#000000E766EE0700
(1771642827.151962) can0 06081F82#0300001B00000800
(1771642827.153271) can0 00000212#150E1400100E0000
(1771642827.154416) can0 060F801A#41F0002143B40000
(1771642827.155600) can0 060F801A#42F0001B00000800
(1771642827.164275) can0 00000252#0542150E14000000
(1771642827.197491) can0 06080F81#1000000400000000
(1771642827.198962) can0 060F8009#41F0000441EA6600
(1771642827.199974) can0 06081F82#1000000200000000
(1771642827.201467) can0 060F801A#41F0000200000000
(1771642827.233321) can0 0757F80B#0110000002030000
(1771642827.236757) can0 00000322#D0020000E0E5331B
(1771642827.248069) can0 06081F82#1000000400000000
(1771642827.249566) can0 060F801A#41F000044207CC00
(1771642827.250577) can0 06080F81#1000004000000000
(1771642827.252095) can0 060F8009#42F0004000400000
(1771642827.253630) can0 0757F80B#02F0000102030000
(1771642827.294599) can0 00000131#000000C7F48B0700
(1771642827.295960) can0 00000211#0000000023000000
(1771642827.298570) can0 06081F82#1000004000000000
(1771642827.300087) can0 060F801A#42F0004000000000
(1771642827.337525) can0 00000322#D0020000E08534FB
(1771642827.345423) can0 00000462#42608853418B023B
(1771642827.349124) can0 06081F82#1000000100000000
(1771642827.350601) can0 060F801A#41F0000143B3F8A0
(1771642827.356508) can0 00000132#000000E96AEE0700
(1771642827.357881) can0 00000212#150E1400100E0000
(1771642827.399737) can0 06081F82#1000000200000000
(1771642827.401221) can0 060F801A#41F0000200000000
(1771642827.406563) can0 00000461#010E88A007000001
(1771642827.438306) can0 00000322#D0020000E02535E4
(1771642827.447584) can0 00000251#6441000000000000
(1771642827.449268) can0 00000172#0006000000000000
(1771642827.450274) can0 06081F82#1000004000000000
(1771642827.451647) can0 00000172#0106000000000000
(1771642827.452776) can0 060F801A#42F0004000000000
(1771642827.498677) can0 00000131#000000C7F88B0700
(1771642827.500424) can0 00000211#0000000023000000
(1771642827.501435) can0 06081F82#1000000100000000
(1771642827.502910) can0 060F801A#41F0000143B3F900
(1771642827.511701) can0 00000171#0006000000000000
(1771642827.513164) can0 00000171#0106000000000000
(1771642827.514455) can0 000001B1#28280700C7FCF400
(1771642827.518894) can0 00000321#0700000000AC357C
(1771642827.526009) can0 0757F803#0110100001010000
(1771642827.539002) can0 00000322#D0020000E0C535A7
(1771642827.551531) can0 06081F82#1000000200000000
(1771642827.553033) can0 060F801A#41F0000200000000
(1771642827.562239) can0 00000132#000000EB6EEE0700
(1771642827.563577) can0 00000212#150E1400100E0000
(1771642827.574348) can0 00000252#0542150E14000000
(1771642827.602118) can0 06081F82#1000004000000000
(1771642827.603636) can0 060F801A#42F0004000000000
(1771642827.628452) can0 075D000B#A001000901820000
(1771642827.639778) can0 00000322#D0020000E06536B6
(1771642827.645260) can0 00000462#42608853418B023B
(1771642827.652262) can0 06081F82#1000000100000000
(1771642827.653722) can0 060F801A#41F0000143B3F920
(1771642827.654700) can0 06080F81#0300003000010000
(1771642827.656147) can0 060F8009#42F0003000010000
(1771642827.657107) can0 06081F82#0300002143B40000
(1771642827.658637) can0 060F801A#41F0002143B40000
(1771642827.659619) can0 06081F82#0300001B00000800
(1771642827.661099) can0 060F801A#42F0001B00000800
(1771642827.703032) can0 06081F82#1000000200000000
(1771642827.704534) can0 060F801A#41F0000200000000
(1771642827.705775) can0 00000131#000000C8FD8B0700
(1771642827.707194) can0 00000211#0000000023000000
(1771642827.718615) can0 00000461#010E88A007000001
(1771642827.740498) can0 00000322#D0020000E0053744
(1771642827.753675) can0 06081F82#1000000300000000
(1771642827.755156) can0 060F801A#41F000033D8A0000
(1771642827.766308) can0 00000132#000000ED72EE0700
(1771642827.767594) can0 00000212#150E1400100E0000
(1771642827.804369) can0 06081F82#1000004000000000
(1771642827.805857) can0 060F801A#42F0004000000000
(1771642827.841324) can0 00000322#D0020000E0A5375C
(1771642827.849633) can0 00000251#6441000000000000
(1771642827.854988) can0 06081F82#1000000100000000
(1771642827.856467) can0 060F801A#41F0000143B3F940
(1771642827.888296) can0 000001B2#7A7A0000EE742A00
(1771642827.906036) can0 06081F82#1000000200000000
(1771642827.907578) can0 060F801A#41F0000200000000
(1771642827.910527) can0 00000131#000000C8018C0700
(1771642827.911885) can0 00000211#0000000023000000
(1771642827.921035) can0 0757F803#0110100001010000
(1771642827.932245) can0 00000332#D05740803A0000B4
(1771642827.939226) can0 000001A2#5A002B050000025E
(1771642827.942321) can0 00000322#D0020000E0453832
(1771642827.950242) can0 00000462#4260885B418B028B
(1771642827.956603) can0 06081F82#1000004000000000
(1771642827.958133) can0 060F801A#42F0004000000000
(1771642827.971309) can0 00000132#000000F077EE0700
(1771642827.972635) can0 00000212#150E1400100E0000
(1771642827.983237) can0 00000252#0542150E14000000
(1771642828.007210) can0 06081F82#1000000100000000
(1771642828.008653) can0 060F801A#41F0000143B3F940
(1771642828.022657) can0 00000461#010E88A007000001
(1771642828.023595) can0 00000321#0700000000CC38AA
(1771642828.024941) can0 0757F80B#0110000002030000
(1771642828.043100) can0 00000322#D0020000E0E5382A
(1771642828.044403) can0 00000231#1027D00758020000
(1771642828.045722) can0 00000221#2300000000644100
(1771642828.047062) can0 00000201#1027D00758020000
(1771642828.057806) can0 06081F82#1000000200000000
(1771642828.059284) can0 060F801A#41F0000200000000
(1771642828.060282) can0 06080F81#1000004000000000
(1771642828.061786) can0 060F8009#42F0004000400000
(1771642828.108363) can0 06081F82#1000004000000000
(1771642828.109903) can0 060F801A#42F0004000000000
(1771642828.117574) can0 00000131#000000C9078C0700
(1771642828.118942) can0 00000211#0000000023000000
(1771642828.143851) can0 00000322#D0020000E08539D8
(1771642828.159019) can0 06081F82#1000000100000000
(1771642828.160500) can0 060F801A#41F0000143B3F940
(1771642828.161459) can0 06081F82#0300002143B40000
(1771642828.162978) can0 060F801A#41F0002143B40000
(1771642828.163964) can0 06081F82#0300001B00000800
(1771642828.165483) can0 060F801A#42F0001B00000800
(1771642828.174269) can0 00000132#000000F27AEF0700
(1771642828.175592) can0 00000212#150E1400100E0000
(1771642828.209503) can0 06081F82#1000000200000000
(1771642828.210988) can0 060F801A#41F0000200000000
(1771642828.244579) can0 00000322#D0020000E0253AC9
(1771642828.249576) can0 00000251#6441000000000000
(1771642828.256331) can0 00000462#4260885B418B028B
(1771642828.260185) can0 06081F82#1000000400000000
(1771642828.261662) can0 060F801A#41F000044207A200
(1771642828.267278) can0 00000222#100E000008054200
(1771642828.268634) can0 00000202#1027140005000000
(1771642828.310744) can0 06081F82#1000004000000000
(1771642828.312257) can0 060F801A#42F0004000000000
(1771642828.316064) can0 0757F803#0110100001010000
(1771642828.320505) can0 00000131#000000C90A8C0700
(1771642828.321864) can0 00000211#0000000023000000
(1771642828.332627) can0 00000461#010E88A007000001
(1771642828.343558) can0 000001C1#01005E0100000000
(1771642828.345311) can0 00000322#D0020000E0C53A8A
(1771642828.360856) can0 06081F82#1000000100000000
(1771642828.362322) can0 060F801A#41F0000143B3F940
(1771642828.379329) can0 00000132#000000F47FEF0700
(1771642828.380718) can0 00000212#150E1400100E0000
(1771642828.391287) can0 00000252#0542150E14000000
(1771642828.411450) can0 06081F82#1000000200000000
(1771642828.412932) can0 060F801A#41F0000200000000
(1771642828.418386) can0 0757F80B#0110000002030000
(1771642828.424540) can0 00090001#0100001B7D000000
(1771642828.432277) can0 000001C2#01005E0100000000
(1771642828.433618) can0 00000232#1027140005000000
(1771642828.446021) can0 00000322#D0020000E0653B95
(1771642828.454393) can0 00000172#0006000000000000
(1771642828.455729) can0 00000172#0106000000000000
(1771642828.462027) can0 06081F82#1000004000000000
(1771642828.463529) can0 060F801A#42F0004000000000
(1771642828.466189) can0 00000331#D0471F1E380000A4
(1771642828.475572) can0 000001A1#5A00F5040000017E
(1771642828.512660) can0 06081F82#1000000100000000
(1771642828.514099) can0 060F801A#41F0000143B3F940
(1771642828.516617) can0 00000171#0006000000000000
(1771642828.518023) can0 00000171#0106000000000000
(1771642828.519351) can0 000001B1#8C8C0700CA12F500
(1771642828.526840) can0 00000321#0700000000EC3B0D
(1771642828.530498) can0 00000131#000000CB138C0700
(1771642828.531869) can0 00000211#0000000023000000
(1771642828.546316) can0 00090002#0100001B7D000000
(1771642828.547277) can0 00000322#D0020000E0053C75
(1771642828.557347) can0 00000462#4260885B418B028B
(1771642828.563256) can0 06081F82#1000000200000000
(1771642828.564758) can0 060F801A#41F0000200000000
(1771642828.588327) can0 00000132#000000F688EF0700
(1771642828.589635) can0 00000212#150E1400100E0000
(1771642828.613881) can0 06081F82#1000004000000000
(1771642828.615369) can0 060F801A#42F0004000000000
(1771642828.632554) can0 00000461#010E88A8070000B1
(1771642828.647706) can0 00000322#D0020000E0A53C6D
(1771642828.653627) can0 00000251#6441000000000000
(1771642828.664467) can0 06081F82#1000000100000000
(1771642828.665920) can0 060F801A#41F0000143B3F940
(1771642828.666875) can0 06081F82#0300002143B40000
(1771642828.668578) can0 060F801A#41F0002143B40000
(1771642828.669563) can0 06081F82#0300001B00000800
(1771642828.671045) can0 060F801A#42F0001B00000800
(1771642828.711138) can0 0757F803#0110100001010000
(1771642828.715199) can0 06080F81#1000000400000000
(1771642828.716664) can0 060F8009#41F0000441EA6600
