(1771640909.925202) can0 00090001#0100001B7D000000
(1771640909.979213) can0 00000212#0000000000000000
(1771640909.990280) can0 00000132#0000000018710000
(1771640910.014767) can0 0757F803#0110100001010000
(1771640910.021138) can0 00000252#6442000000000000
(1771640910.035940) can0 00000461#010AC80000000084
(1771640910.056766) can0 00000131#00000000E70E0000
(1771640910.058233) can0 00000211#0000000000000000
(1771640910.102135) can0 00000462#020AC800000000E2
(1771640910.103542) can0 00000172#0006000000000000
(1771640910.104880) can0 00000172#0106000000000000
(1771640910.115315) can0 0757F80B#0110100002030000
(1771640910.186124) can0 00000212#0000000000000000
(1771640910.197113) can0 00000132#000000001E710000
(1771640910.228978) can0 00000251#6441000000000000
(1771640910.259456) can0 00000321#00000000000C306C
(1771640910.260804) can0 00000131#00000000EA0E0000
(1771640910.261703) can0 00000331#D0471F1E380000A4
(1771640910.263138) can0 00000211#0000000000000000
(1771640910.264059) can0 00000322#00000000000C306C
(1771640910.265846) can0 00000332#D0471F1E380000A4
(1771640910.274865) can0 000001A1#5A000100000001A0
(1771640910.278071) can0 000001A2#5A000100000002A9
(1771640910.329087) can0 000001B2#0000070002200100
(1771640910.335958) can0 00000461#010E880800000058
(1771640910.390098) can0 00000212#0000000000000000
(1771640910.401093) can0 00000132#0000000222710000
(1771640910.409734) can0 0757F803#0110100001010000
(1771640910.412130) can0 00000462#020E88080000003E
(1771640910.423077) can0 00000252#6442000000000000
(1771640910.466807) can0 00000131#00000002EE0E0000
(1771640910.468136) can0 00000211#0000000000000000
(1771640910.510370) can0 0757F80B#0110100002030000
(1771640910.594443) can0 00000212#0000000000000000
(1771640910.605051) can0 00000132#0000000226710000
(1771640910.628955) can0 00000251#6441000000000000
(1771640910.639881) can0 00000461#010E880800000058
(1771640910.670856) can0 00000131#00000002F20E0000
(1771640910.672221) can0 00000211#0000000000000000
(1771640910.702902) can0 00000171#0006000000000000
(1771640910.704220) can0 00000171#0106000000000000
(1771640910.716083) can0 00000462#020E88080000003E
(1771640910.717064) can0 06080F81#1000000200000000
(1771640910.718513) can0 060F8009#41F0000200000000
(1771640910.719493) can0 06081F82#1000000200000000
(1771640910.721032) can0 060F801A#41F0000200000000
(1771640910.721990) can0 06080F81#0300003000010000
(1771640910.723520) can0 060F8009#42F0003000010000
(1771640910.724484) can0 06081F82#0300003000010000
(1771640910.725961) can0 060F801A#42F0003000010000
(1771640910.726874) can0 00000321#0000000000AC3074
(1771640910.728838) can0 00000322#0000000000AC3074
(1771640910.730771) can0 00000332#D0471F1E3B000019
(1771640910.734829) can0 000001B1#0A00070003F60100
(1771640910.737271) can0 000001A2#5A0002000000020F
(1771640910.771278) can0 06081F82#1000004300000000
(1771640910.772771) can0 060F801A#42F0004300020003
(1771640910.773767) can0 06080F81#1000004300000000
(1771640910.775209) can0 060F8009#42F0004300010001
(1771640910.798139) can0 00000212#0000000000000000
(1771640910.804773) can0 075D0003#10F003C002000000
(1771640910.809102) can0 00000132#000000042A710000
(1771640910.827306) can0 06080F81#1000004000000000
(1771640910.828812) can0 060F8009#42F0004000400000
(1771640910.829765) can0 06081F82#1000004000000000
(1771640910.831139) can0 00000252#6442000000000000
(1771640910.832278) can0 060F801A#42F0004000400000
(1771640910.872238) can0 00000402#7100000000000000
(1771640910.873702) can0 00000422#040000002D090000
(1771640910.875872) can0 00000131#00000003F70F0000
(1771640910.877386) can0 00000211#0000000000000000
(1771640910.878389) can0 06081F82#1000000100000000
(1771640910.879940) can0 060F801A#41F000014087C800
(1771640910.880909) can0 06080F81#1000000100000000
(1771640910.882415) can0 060F8009#41F000014055D000
(1771640910.905221) can0 0757F80B#0110100002030000
(1771640910.947897) can0 00000461#010E880800000058
(1771640910.991452) can0 00000321#07000000000C3178
(1771640910.993304) can0 00000322#08000000000C3181
(1771640911.005032) can0 00000212#0000000028000000
(1771640911.016252) can0 00000462#020E8810000000E9
(1771640911.017654) can0 00000132#0000000530720000
(1771640911.028882) can0 00000251#6441000000000000
(1771640911.069087) can0 00000222#2800000000054200
(1771640911.070495) can0 00000202#1027D00758020000
(1771640911.079934) can0 00000131#00000004FB0F0000
(1771640911.081324) can0 00000211#0000000023000000
(1771640911.111177) can0 00000172#0006000000000000
(1771640911.112597) can0 00000172#0106000000000000
(1771640911.123062) can0 000001C2#01005E0100000000
(1771640911.124454) can0 00000232#1027D00758020000
(1771640911.199734) can0 0757F803#0110100001010000
(1771640911.205157) can0 00000212#0000000028000000
(1771640911.216075) can0 00000132#0000000538720000
(1771640911.237116) can0 00000252#0542000000000000
(1771640911.251908) can0 00000461#010E880800000058
(1771640911.282916) can0 00000131#00000004FE0F0000
(1771640911.284364) can0 00000211#0000000023000000
(1771640911.298414) can0 06081F82#1000004B00000000
(1771640911.299893) can0 060F801A#42F0004B00000003
(1771640911.300897) can0 06080F81#1000004B00000000
(1771640911.302258) can0 075D000B#10F003C002000000
(1771640911.303384) can0 060F8009#42F0004B00000003
(1771640911.318072) can0 00000462#020E8810000000E9
(1771640911.329016) can0 000001B2#10100700053B0200
(1771640911.350049) can0 00090002#0100001B7D000000
(1771640911.411192) can0 00000212#0000000028000000
(1771640911.422052) can0 00000132#000000053E720000
(1771640911.434928) can0 00000251#6441000000000000
(1771640911.485866) can0 00000131#00000004010F0000
(1771640911.487285) can0 00000211#0000000023000000
(1771640911.493012) can0 00000321#0700000000AC3160
(1771640911.494857) can0 00000322#0800000000AC3199
(1771640911.557952) can0 00000461#010E880800000058
(1771640911.594985) can0 075D0003#A001100801800081
(1771640911.613160) can0 00000212#0000000028000000
(1771640911.624089) can0 00000462#020E8810000000E9
(1771640911.625441) can0 00000132#0000000641720000
(1771640911.646252) can0 00000252#0542000000000000
(1771640911.663413) can0 06080F81#1000004000000000
(1771640911.665072) can0 060F8009#42F0004000400000
(1771640911.665874) can0 06081F82#1000004000000000
(1771640911.667462) can0 060F801A#42F0004000400000
(1771640911.688905) can0 00000131#00000005040F0000
(1771640911.690229) can0 00000231#1027D00758020000
(1771640911.691572) can0 00000221#2300000000644100
(1771640911.692902) can0 00000211#0000000023000000
(1771640911.694235) can0 00000201#1027D00758020000
(1771640911.695382) can0 0757F80B#0110100002030000
(1771640911.704988) can0 00000171#0006000000000000
(1771640911.706412) can0 00000171#0106000000000000
(1771640911.737898) can0 000001B1#1A1A0700050B0100
(1771640911.793982) can0 00000331#D0471F1E380000A4
(1771640911.798857) can0 000001A1#5A00020000000106
(1771640911.817203) can0 00000212#0000000028000000
(1771640911.820015) can0 000001C1#01005E0100000000
(1771640911.822505) can0 06081F82#1000000400000000
(1771640911.823963) can0 060F801A#41F0000442029900
(1771640911.824908) can0 06080F81#1000000400000000
(1771640911.826530) can0 060F8009#41F0000441EB9800
(1771640911.828229) can0 00000132#0000000644720000
(1771640911.840909) can0 00000251#6441000000000000
(1771640911.861889) can0 00000461#010E88100000008F
(1771640911.892875) can0 00000131#0000000610100000
(1771640911.894252) can0 00000211#0000000023000000
(1771640911.924918) can0 00090001#0100001B7D000000
(1771640911.929307) can0 00000462#020E8810000000E9
(1771640911.989648) can0 0757F803#0110100001010000
(1771640911.994710) can0 00000321#07000000004C322A
(1771640911.996611) can0 00000322#08000000004C32D3
(1771640912.020100) can0 00000212#0000000028000000
(1771640912.031116) can0 00000132#0000000747730000
(1771640912.052071) can0 00000252#0542000000000000
(1771640912.090534) can0 075D000B#A001100801800081
(1771640912.095998) can0 00000131#0000000713100000
(1771640912.097460) can0 00000211#0000000023000000
(1771640912.113068) can0 00000172#0006000000000000
(1771640912.114413) can0 00000172#0106000000000000
(1771640912.168956) can0 00000461#010E88100000008F
(1771640912.225032) can0 00000212#0000000028000000
(1771640912.236130) can0 00000462#020E8810000000E9
(1771640912.237446) can0 00000132#000000074D730000
(1771640912.249365) can0 00000332#D0471F1E3B000019
(1771640912.250759) can0 00000251#6441000000000000
(1771640912.255244) can0 0757F803#02F0000101010000
(1771640912.257985) can0 000001A2#5A0003000000026D
(1771640912.301880) can0 00000131#0000000717100000
(1771640912.303254) can0 00000211#0000000023000000
(1771640912.329070) can0 000001B2#24240700084F0300
(1771640912.384774) can0 0757F803#0110100001010000
(1771640912.430085) can0 00000212#0000000028000000
(1771640912.441209) can0 00000132#0000000851730000
(1771640912.452146) can0 00000252#0542000000000000
(1771640912.474119) can0 00000461#010E88100000008F
(1771640912.485331) can0 0757F80B#0110100002030000
(1771640912.500165) can0 00000321#0700000000EC3232
(1771640912.502087) can0 00000322#0800000000EC32CB
(1771640912.504959) can0 00000131#000000081A100000
(1771640912.506279) can0 00000211#0000000023000000
(1771640912.514567) can0 06080F81#1000004000000000
(1771640912.516130) can0 060F8009#42F0004000400000
(1771640912.517135) can0 06081F82#1000004000000000
(1771640912.518680) can0 060F801A#42F0004000400000
(1771640912.543230) can0 00000462#020E881800000059
(1771640912.634140) can0 00000212#0000000028000000
(1771640912.645046) can0 00000132#0000000955730000
(1771640912.656905) can0 00000251#6441000000000000
(1771640912.707907) can0 00000171#0006000000000000
(1771640912.709268) can0 00000171#0106000000000000
(1771640912.710617) can0 00000131#000000081F100000
(1771640912.711960) can0 00000211#0000000023000000
(1771640912.742821) can0 000001B1#2E2E070008210200
(1771640912.750865) can0 0757F80B#02F0000102030000
(1771640912.773884) can0 00000461#010E88100000008F
(1771640912.779755) can0 0757F803#0110100001010000
(1771640912.836375) can0 00000212#0000000028000000
(1771640912.847099) can0 00000462#020E881800000059
(1771640912.848433) can0 00000132#0000000958730000
(1771640912.859087) can0 00000252#0542000000000000
(1771640912.880446) can0 0757F80B#0110100002030000
(1771640912.914845) can0 00000131#0000000823110000
(1771640912.916216) can0 00000211#0000000023000000
(1771640913.007735) can0 00000321#07000000008C33C0
(1771640913.009622) can0 00000322#08000000008C3339
(1771640913.040165) can0 00000212#0000000028000000
(1771640913.051134) can0 00000132#0000000A5B740000
(1771640913.056884) can0 00000251#6441000000000000
(1771640913.072089) can0 00000222#2800000000054200
(1771640913.073417) can0 00000202#1027D00758020000
(1771640913.077915) can0 00000461#010E88100000008F
(1771640913.114423) can0 00000172#0006000000000000
(1771640913.115685) can0 00000172#0106000000000000
(1771640913.118905) can0 00000131#0000000927110000
(1771640913.120340) can0 00000211#0000000023000000
(1771640913.127127) can0 000001C2#01005E0100000000
(1771640913.128514) can0 00000232#1027D00758020000
(1771640913.149356) can0 00000462#020E881800000059
(1771640913.174715) can0 0757F803#0110100001010000
(1771640913.240077) can0 00000212#0000000028000000
(1771640913.251037) can0 00000132#0000000A64740000
(1771640913.262180) can0 00000252#0542000000000000
(1771640913.275292) can0 0757F80B#0110100002030000
(1771640913.311220) can0 00000331#D0471F1E380000A4
(1771640913.320829) can0 000001A1#5A00030000000164
(1771640913.322222) can0 00000131#0000000A2A110000
(1771640913.323633) can0 00000211#0000000023000000
(1771640913.333077) can0 000001B2#383807000A660300
(1771640913.354014) can0 00090002#0100001B7D000000
(1771640913.367340) can0 06080F81#1000000400000000
(1771640913.368857) can0 060F8009#41F0000441EB9800
(1771640913.369808) can0 06081F82#1000000400000000
(1771640913.371256) can0 060F801A#41F0000442029900
(1771640913.384866) can0 00000461#010E88180000003F
(1771640913.418242) can0 06081F82#1000004000000000
(1771640913.419814) can0 060F801A#42F0004000400000
(1771640913.420772) can0 06080F81#1000004000000000
(1771640913.422337) can0 060F8009#42F0004000400000
(1771640913.445128) can0 00000212#0000000028000000
(1771640913.456199) can0 00000462#020E881800000059
(1771640913.457597) can0 00000132#0000000A6A740000
(1771640913.465981) can0 00000251#6441000000000000
(1771640913.511930) can0 00000321#07000000002C34CD
(1771640913.513800) can0 00000322#08000000002C3434
(1771640913.526811) can0 00000131#0000000B2E110000
(1771640913.528164) can0 00000211#0000000023000000
(1771640913.569737) can0 0757F803#0110100001010000
(1771640913.649220) can0 00000212#0000000028000000
(1771640913.660044) can0 00000132#0000000B6C740000
(1771640913.670391) can0 0757F80B#0110100002030000
(1771640913.671571) can0 00000252#0542000000000000
(1771640913.689003) can0 00000461#010E88180000003F
(1771640913.690332) can0 00000231#1027D00758020000
(1771640913.691701) can0 00000221#2300000000644100
(1771640913.692975) can0 00000201#1027D00758020000
(1771640913.713937) can0 00000171#0006000000000000
(1771640913.715330) can0 00000171#0106000000000000
(1771640913.735852) can0 00000131#0000000B36110000
(1771640913.737285) can0 00000211#0000000023000000
(1771640913.747834) can0 000001B1#424207000B380300
(1771640913.762106) can0 00000462#020E881800000059
(1771640913.763021) can0 00000332#D0471F1E3B000019
(1771640913.773044) can0 000001A2#5A00040000000244
(1771640913.828997) can0 000001C1#01005E0100000000
(1771640913.854214) can0 00000212#0000000028000000
(1771640913.865097) can0 00000132#0000000C71740000
(1771640913.869880) can0 00000251#6441000000000000
(1771640913.930918) can0 00090001#0100001B7D000000
(1771640913.941863) can0 00000131#0000000B3C120000
(1771640913.943171) can0 00000211#0000000023000000
(1771640913.964712) can0 0757F803#0110100001010000
(1771640913.993897) can0 00000461#010E88180000003F
(1771640914.013745) can0 00000321#0700000000CC348E
(1771640914.015672) can0 00000322#0800000000CC3477
(1771640914.056106) can0 00000212#0000000028000000
(1771640914.065391) can0 0757F80B#0110100002030000
(1771640914.067139) can0 00000462#020E882000000040
(1771640914.068554) can0 00000132#0000000D74750000
(1771640914.079072) can0 00000252#0542000000000000
(1771640914.120083) can0 00000172#0006000000000000
(1771640914.121452) can0 00000172#0106000000000000
(1771640914.144911) can0 00000131#0000000C3F120000
(1771640914.146293) can0 00000211#0000000023000000
(1771640914.258311) can0 06081F82#1000004000000000
(1771640914.259802) can0 060F801A#42F0004000400000
(1771640914.260805) can0 06080F81#1000004000000000
(1771640914.262210) can0 00000212#0000000028000000
(1771640914.263381) can0 060F8009#42F0004000400000
(1771640914.273132) can0 00000132#0000000D79750000
(1771640914.277118) can0 00000251#6441000000000000
(1771640914.297880) can0 00000461#010E88180000003F
(1771640914.334089) can0 000001B2#4C4C07000D7A0400
(1771640914.348895) can0 00000131#0000000C43120000
(1771640914.350272) can0 00000211#0000000023000000
(1771640914.359760) can0 0757F803#0110100001010000
(1771640914.375308) can0 00000462#020E882000000040
(1771640914.460339) can0 0757F80B#0110100002030000
(1771640914.466107) can0 00000212#0000000028000000
(1771640914.477178) can0 00000132#0000000D7D750000
(1771640914.488168) can0 00000252#0542000000000000
(1771640914.527296) can0 00000321#07000000006C3591
(1771640914.529213) can0 00000322#08000000006C3568
(1771640914.550856) can0 00000131#0000000D45120000
(1771640914.552186) can0 00000211#0000000023000000
(1771640914.603040) can0 00000461#010E88180000003F
(1771640914.669248) can0 00000212#0000000028000000
(1771640914.680137) can0 00000462#020E882000000040
(1771640914.681383) can0 00000132#0000000E81750000
(1771640914.683961) can0 00000251#6441000000000000
(1771640914.714927) can0 00000171#0006000000000000
(1771640914.716305) can0 00000171#0106000000000000
(1771640914.754888) can0 075D0003#10F003C002000000
(1771640914.756823) can0 000001B1#565607000D4B0300
(1771640914.758106) can0 00000131#0000000D4C120000
(1771640914.759546) can0 00000211#0000000023000000
(1771640914.831273) can0 00000331#D0471F1E380000A4
(1771640914.840812) can0 000001A1#5A0004000000014D
(1771640914.855353) can0 0757F80B#0110100002030000
(1771640914.872187) can0 00000212#0000000028000000
(1771640914.883170) can0 00000132#0000000E83750000
(1771640914.894145) can0 00000252#0542000000000000
(1771640914.903335) can0 06081F82#1000000400000000
(1771640914.904765) can0 060F801A#41F0000442026C00
(1771640914.905750) can0 06080F81#1000000400000000
(1771640914.907241) can0 060F8009#41F0000441EB9800
(1771640914.911840) can0 00000461#010E882000000026
(1771640914.962917) can0 00000131#0000000E50130000
(1771640914.964249) can0 00000211#0000000023000000
(1771640914.985080) can0 00000462#020E882000000040
(1771640915.039339) can0 00000321#07000000000C366D
(1771640915.041234) can0 00000322#08000000000C3694
(1771640915.063339) can0 06080F81#1000004000000000
(1771640915.064864) can0 060F8009#42F0004000400000
(1771640915.065805) can0 06081F82#1000004000000000
(1771640915.067319) can0 060F801A#42F0004000400000
(1771640915.076226) can0 00000222#2800000000054200
(1771640915.077699) can0 00000212#0000000028000000
(1771640915.079043) can0 00000202#1027D00758020000
(1771640915.084901) can0 00000251#6441000000000000
(1771640915.090079) can0 00000132#0000000F89760000
(1771640915.121195) can0 00000172#0006000000000000
(1771640915.122528) can0 00000172#0106000000000000
(1771640915.133114) can0 000001C2#01005E0100000000
(1771640915.134393) can0 00000232#1027D00758020000
(1771640915.149763) can0 0757F803#0110100001010000
(1771640915.165881) can0 00000131#0000000F53130000
(1771640915.167236) can0 00000211#0000000023000000
(1771640915.217874) can0 00000461#010E882000000026
(1771640915.250475) can0 075D000B#10F003C002000000
(1771640915.285060) can0 00000462#020E882000000040
(1771640915.286496) can0 00000212#0000000028000000
(1771640915.290024) can0 0757F803#02F0000101010000
(1771640915.290933) can0 00000332#D0471F1E3B000019
(1771640915.297041) can0 000001A2#5A00050000000226
(1771640915.298536) can0 00000252#0542000000000000
(1771640915.299964) can0 00000132#0000001092760000
(1771640915.341087) can0 000001B2#6060070010930500
(1771640915.362179) can0 00090002#0100001B7D000000
(1771640915.368951) can0 00000131#0000000F56130000
(1771640915.370333) can0 00000211#0000000023000000
(1771640915.490845) can0 00000251#6441000000000000
(1771640915.493175) can0 00000212#0000000028000000
(1771640915.504146) can0 00000132#0000001096760000
(1771640915.521831) can0 00000461#010E882000000026
(1771640915.540733) can0 00000321#0700000000AC3675
(1771640915.542624) can0 00000322#0800000000AC368C
(1771640915.544670) can0 0757F803#0110100001010000
(1771640915.573127) can0 00000131#000000105A130000
(1771640915.574647) can0 00000211#0000000023000000
(1771640915.585108) can0 00000462#020E8828000000F0
(1771640915.645319) can0 0757F80B#0110100002030000
(1771640915.695934) can0 00000231#1027D00758020000
(1771640915.697072) can0 00000212#0000000028000000
(1771640915.698150) can0 00000221#2300000000644100
(1771640915.699518) can0 00000201#1027D00758020000
(1771640915.708094) can0 00000252#0542000000000000
(1771640915.709428) can0 00000132#000000119A760000
(1771640915.720966) can0 00000171#0006000000000000
(1771640915.722429) can0 00000171#0106000000000000
(1771640915.763856) can0 000001B1#6A6A070010610400
(1771640915.774829) can0 00000131#0000001062130000
(1771640915.776284) can0 00000211#0000000023000000
(1771640915.785595) can0 0757F80B#02F0000102030000
(1771640915.826962) can0 00000461#010E882000000026
(1771640915.837845) can0 000001C1#01005E0100000000
(1771640915.890199) can0 00000462#020E8828000000F0
(1771640915.899022) can0 00000251#6441000000000000
(1771640915.901249) can0 00000212#0000000028000000
(1771640915.911390) can0 06080F81#1000004000000000
(1771640915.912809) can0 00000132#000000119D760000
(1771640915.913669) can0 06081F82#1000004000000000
(1771640915.915065) can0 060F8009#42F0004000400000
(1771640915.916197) can0 060F801A#42F0004000400000
(1771640915.939750) can0 0757F803#0110100001010000
(1771640915.940898) can0 00090001#0100001B7D000000
(1771640915.981899) can0 00000131#0000001068140000
(1771640915.983343) can0 00000211#0000000023000000
(1771640916.040289) can0 0757F80B#0110100002030000
(1771640916.045970) can0 00000321#07000000004C3731
(1771640916.047891) can0 00000322#08000000004C37C8
(1771640916.104237) can0 00000212#0000000028000000
(1771640916.115082) can0 00000252#0542000000000000
(1771640916.116472) can0 00000132#00000012A0770000
(1771640916.127055) can0 00000172#0006000000000000
(1771640916.128508) can0 00000172#0106000000000000
(1771640916.133895) can0 00000461#010E882000000026
(1771640916.184971) can0 00000131#000000116B140000
(1771640916.186306) can0 00000211#0000000023000000
(1771640916.199150) can0 00000462#020E8828000000F0
(1771640916.306962) can0 00000251#6441000000000000
(1771640916.310276) can0 00000212#0000000028000000
(1771640916.321324) can0 00000132#00000012A5770000
(1771640916.334851) can0 0757F803#0110100001010000
(1771640916.342134) can0 000001B2#7474070012A60500
(1771640916.347050) can0 00000331#D0471F1E380000A4
(1771640916.357906) can0 000001A1#5A0005000000012F
(1771640916.388937) can0 00000131#000000126F140000
(1771640916.390433) can0 00000211#0000000023000000
(1771640916.435361) can0 0757F80B#0110100002030000
(1771640916.439436) can0 06080F81#1000000400000000
(1771640916.440929) can0 060F8009#41F0000441EB9800
(1771640916.442080) can0 00000461#010E882800000096
(1771640916.443019) can0 06081F82#1000000400000000
(1771640916.444538) can0 060F801A#41F0000442026600
(1771640916.503361) can0 00000462#020E8828000000F0
(1771640916.514120) can0 00000212#0000000028000000
(1771640916.525064) can0 00000252#0542000000000000
(1771640916.526368) can0 00000132#00000012AA770000
(1771640916.547794) can0 00000321#0700000000EC3729
(1771640916.549668) can0 00000322#0800000000EC37D0
(1771640916.587139) can0 00000242#06020088C9B3793F
(1771640916.588493) can0 00000242#0602016800000000
(1771640916.592852) can0 00000131#0000001372140000
(1771640916.594223) can0 00000211#0000000023000000
(1771640916.701385) can0 00000332#D0471F9E3A000043
(1771640916.709071) can0 000001A2#5A00060000000280
(1771640916.715013) can0 00000251#6441000000000000
(1771640916.720215) can0 00000212#0000000028000000
(1771640916.725848) can0 00000171#0006000000000000
(1771640916.727181) can0 00000171#0106000000000000
(1771640916.729841) can0 0757F803#0110100001010000
(1771640916.731076) can0 00000132#00000014AF770000
(1771640916.734135) can0 06081F82#1000004000000000
(1771640916.735655) can0 060F801A#42F0004000400000
(1771640916.736611) can0 06080F81#1000004000000000
(1771640916.738157) can0 060F8009#42F0004000400000
(1771640916.747970) can0 00000461#010E882800000096
(1771640916.768812) can0 000001B1#7E7E070013780500
(1771640916.799862) can0 00000131#0000001379140000
(1771640916.801269) can0 00000211#0000000023000000
(1771640916.812143) can0 00000462#020E883000000027
(1771640916.830421) can0 0757F80B#0110100002030000
(1771640916.923187) can0 00000212#0000000028000000
(1771640916.934152) can0 00000252#0542000000000000
(1771640916.935468) can0 00000132#00000014B3770000
(1771640917.001856) can0 00000131#000000137B150000
(1771640917.003266) can0 00000211#0000000023000000
(1771640917.052570) can0 00000321#07000000008C38F1
(1771640917.054034) can0 00000461#010E882800000096
(1771640917.055060) can0 00000322#08000000008C3808
(1771640917.076121) can0 00000222#2800000000054200
(1771640917.077516) can0 00000202#1027D00758020000
(1771640917.114851) can0 00000251#6441000000000000
(1771640917.118084) can0 00000462#020E883000000027
(1771640917.124763) can0 0757F803#0110100001010000
(1771640917.129226) can0 00000172#0006000000000000
(1771640917.130654) can0 00000172#0106000000000000
(1771640917.132054) can0 00000212#0000000028000000
(1771640917.143134) can0 000001C2#01005E0100000000
(1771640917.144459) can0 00000132#00000015BB780000
(1771640917.145751) can0 00000232#1027D00758020000
(1771640917.205893) can0 00000131#000000147F150000
(1771640917.207230) can0 00000211#0000000023000000
(1771640917.225387) can0 0757F80B#0110100002030000
(1771640917.337174) can0 00000252#0542000000000000
(1771640917.338567) can0 00000212#0000000028000000
(1771640917.349282) can0 000001B2#8888070015BF0600
(1771640917.350695) can0 00000132#00000015C0780000
(1771640917.357899) can0 00000461#010E882800000096
(1771640917.362116) can0 00090002#0100001B7D000000
(1771640917.408970) can0 00000131#0000001482150000
(1771640917.410246) can0 00000211#0000000023000000
(1771640917.423175) can0 00000462#020E883000000027
(1771640917.519790) can0 0757F803#0110100001010000
(1771640917.520918) can0 00000251#6441000000000000
(1771640917.544203) can0 00000212#0000000028000000
(1771640917.554096) can0 00000321#07000000002C39EE
(1771640917.555481) can0 00000132#00000015C4780000
(1771640917.556376) can0 00000322#08000000002C3917
(1771640917.578151) can0 06081F82#1000004000000000
(1771640917.579688) can0 060F801A#42F0004000400000
(1771640917.580703) can0 06080F81#1000004000000000
(1771640917.582201) can0 060F8009#42F0004000400000
(1771640917.611900) can0 00000131#0000001585150000
(1771640917.613315) can0 00000211#0000000023000000
(1771640917.620291) can0 0757F80B#0110100002030000
(1771640917.663953) can0 00000461#010E882800000096
(1771640917.704974) can0 00000231#1027D00758020000
(1771640917.706241) can0 00000221#2300000000644100
(1771640917.707581) can0 00000201#1027D00758020000
(1771640917.726089) can0 00000462#020E883000000027
(1771640917.728889) can0 00000171#0006000000000000
(1771640917.730206) can0 00000171#0106000000000000
(1771640917.737260) can0 00000252#0542000000000000
(1771640917.748097) can0 00000212#0000000028000000
(1771640917.759095) can0 00000132#00000016C8780000
(1771640917.770809) can0 000001B1#92920700158D0500
(1771640917.811891) can0 00000131#000000158E150000
(1771640917.813215) can0 00000211#0000000023000000
(1771640917.843823) can0 000001C1#01005E0100000000
(1771640917.854987) can0 00000331#D0471F1E380000A4
(1771640917.864856) can0 000001A1#5A00060000000189
(1771640917.914779) can0 075D0003#A001100801800081
(1771640917.925955) can0 00000251#6441000000000000
(1771640917.945556) can0 06080F81#1000000400000000
(1771640917.946909) can0 00090001#0100001B7D000000
(1771640917.947917) can0 06081F82#1000000400000000
(1771640917.949329) can0 060F8009#41F0000441EB9800
(1771640917.950613) can0 00000212#0000000028000000
(1771640917.951620) can0 060F801A#41F0000442025A00
(1771640917.961210) can0 00000132#00000016CA780000
(1771640917.967918) can0 00000461#010E883000000041
(1771640917.972046) can0 00000282#06020088C9B3793F
(1771640917.973370) can0 00000282#0602016800000000
(1771640918.015318) can0 0757F80B#0110100002030000
(1771640918.018824) can0 00000131#0000001695160000
(1771640918.020244) can0 00000211#0000000023000000
(1771640918.034325) can0 00000462#120E8830000000F4
(1771640918.055581) can0 00000321#0700000000CC39AD
(1771640918.057422) can0 00000322#0800000000CC3954
(1771640918.135219) can0 00000172#0006000000000000
(1771640918.136630) can0 00000172#0106000000000000
(1771640918.148180) can0 00000252#0542000000000000
(1771640918.159140) can0 00000212#0000000028000000
(1771640918.160049) can0 00000322#0800000000EC39FA
(1771640918.170131) can0 00000132#00000018D2790000
(1771640918.209471) can0 00000332#D0471F9E3A000043
(1771640918.211468) can0 000001A2#5A000700000002E2
(1771640918.220924) can0 00000131#0000001797160000
(1771640918.222339) can0 00000211#0000000023000000
(1771640918.263364) can0 00000322#08000000000C3AB0
(1771640918.273143) can0 00000461#010E883000000041
(1771640918.309781) can0 0757F803#0110100001010000
(1771640918.325098) can0 0757F803#02F0000101010000
(1771640918.333878) can0 00000251#6441000000000000
(1771640918.342153) can0 00000462#3A0E88380000000F
(1771640918.353165) can0 000001B2#A0A007001AD50700
(1771640918.364195) can0 00000212#0000000028000000
(1771640918.366196) can0 00000322#08000000002C3A1E
(1771640918.375131) can0 00000132#0000001BD7790000
(1771640918.410416) can0 075D000B#A001100801800081
(1771640918.420301) can0 06081F82#1000004000000000
(1771640918.421842) can0 060F801A#42F0004000400000
(1771640918.422799) can0 06080F81#1000004000000000
(1771640918.424349) can0 060F8009#42F0004000400000
(1771640918.425459) can0 00000131#000000179B160000
(1771640918.426827) can0 00000211#0000000023000000
(1771640918.466521) can0 00000322#08000000004C3AEB
(1771640918.556178) can0 00000252#0542000000000000
(1771640918.567181) can0 00000212#0000000028000000
(1771640918.568047) can0 00000321#07000000006C3ABC
(1771640918.569883) can0 00000322#08000000006C3A45
(1771640918.577889) can0 00000461#010E883000000041
(1771640918.579027) can0 00000132#0000001DDA790000
(1771640918.628915) can0 00000131#000000189E160000
(1771640918.630313) can0 00000211#0000000023000000
(1771640918.650156) can0 00000462#3A0E88380000000F
(1771640918.667434) can0 00000322#08000000008C3A06
(1771640918.704855) can0 075D0003#10F003C002000000
(1771640918.731012) can0 00000171#0006000000000000
(1771640918.732527) can0 00000171#0106000000000000
(1771640918.743948) can0 00000251#6441000000000000
(1771640918.771382) can0 00000212#0000000028000000
(1771640918.772314) can0 00000322#0800000000AC3AA8
(1771640918.774945) can0 000001B1#A6A6070018A30600
(1771640918.782063) can0 00000132#0000001FDD790000
(1771640918.805332) can0 0757F80B#0110100002030000
(1771640918.820785) can0 0757F80B#02F0000102030000
(1771640918.835896) can0 00000131#00000018A4170000
(1771640918.837257) can0 00000211#0000000023000000
(1771640918.875319) can0 00000322#0800000000CC3A5D
(1771640918.877975) can0 00000461#010E883000000041
(1771640918.953261) can0 00000462#3A0E88380000000F
(1771640918.964098) can0 00000252#0542000000000000
(1771640918.975087) can0 00000212#0000000028000000
(1771640918.976013) can0 00000322#0800000000EC3AF3
(1771640918.986156) can0 00000132#00000021E1790000
(1771640919.038929) can0 00000131#00000018A7170000
(1771640919.040342) can0 00000211#0000000023000000
(1771640919.077142) can0 00000222#2800000007054200
(1771640919.078502) can0 00000202#1027D00758020000
(1771640919.079442) can0 00000321#07000000000C3B4E
(1771640919.081352) can0 00000322#08000000000C3BB7
(1771640919.100014) can0 0757F803#0110100001010000
(1771640919.139121) can0 00000172#0006000000000000
(1771640919.140428) can0 00000172#0106000000000000
(1771640919.150885) can0 00000251#6441000000000000
(1771640919.152011) can0 000001C2#01005E0100000000
(1771640919.153439) can0 00000232#1027D00758020000
(1771640919.181878) can0 00000461#010E883000000041
(1771640919.183907) can0 00000322#08000000002C3B19
(1771640919.185304) can0 00000212#0000000028000000
(1771640919.196160) can0 00000132#00000023E97A0000
(1771640919.200489) can0 075D000B#10F003C002000000
(1771640919.220900) can0 06080F81#1000004000000000
(1771640919.222451) can0 060F8009#42F0004000400000
(1771640919.223423) can0 06081F82#1000004000000000
(1771640919.224965) can0 060F801A#42F0004000400000
(1771640919.242908) can0 00000131#00000019AB170000
(1771640919.244207) can0 00000211#0000000023000000
(1771640919.257133) can0 00000462#3A0E88380000000F
(1771640919.283705) can0 00000322#08000000004C3BEC
(1771640919.358110) can0 000001B2#B4B4070024EB0700
(1771640919.369143) can0 00000252#0542000000000000
(1771640919.370442) can0 00090002#0100001B7D000000
(1771640919.384036) can0 00000331#D0471F1E380000A4
(1771640919.385906) can0 00000322#08000000006C3B42
(1771640919.391261) can0 00000212#0000000028000000
(1771640919.394828) can0 000001A1#5A000700000001EB
(1771640919.402042) can0 00000132#00000025EF7A0000
(1771640919.445934) can0 00000131#0000001AAE170000
(1771640919.447313) can0 00000211#0000000023000000
(1771640919.482065) can0 06081F82#1000000400000000
(1771640919.483599) can0 060F801A#41F0000442023300
(1771640919.484489) can0 06080F81#1000000400000000
(1771640919.485940) can0 060F8009#41F0000441EB9800
(1771640919.486928) can0 00000322#08000000008C3B01
(1771640919.488255) can0 00000461#010E8838000000F1
(1771640919.494873) can0 0757F803#0110100001010000
(1771640919.558913) can0 00000251#6441000000000000
(1771640919.563148) can0 00000462#3A0E88380000000F
(1771640919.584652) can0 00000321#0700000000AC3B56
(1771640919.586549) can0 00000322#0800000000AC3BAF
(1771640919.594242) can0 00000212#0000000028000000
(1771640919.595546) can0 0757F80B#0110100002030000
(1771640919.605136) can0 00000132#00000027F27A0000
(1771640919.649931) can0 00000401#1700000000000000
(1771640919.651268) can0 00000421#1B000000B3010000
(1771640919.652635) can0 00000131#0000001BB4170000
(1771640919.654066) can0 00000211#0000000023000000
(1771640919.655340) can0 00000111#4553505F43010000
(1771640919.685143) can0 00000322#0800000000CC3B5A
(1771640919.705827) can0 00000231#1027D00758020000
(1771640919.707144) can0 00000221#2300000000644100
(1771640919.708706) can0 00000201#1027D00758020000
(1771640919.735274) can0 00000332#D0471F9E3A000043
(1771640919.739844) can0 00000171#0006000000000000
(1771640919.741236) can0 00000171#0106000000000000
(1771640919.746077) can0 000001A2#5A000800000002D2
(1771640919.777135) can0 00000252#0542000000000000
(1771640919.781897) can0 000001B1#BABA07001BBC0700
(1771640919.785572) can0 00000322#0800000000EC3BF4
(1771640919.793132) can0 00000461#010E8838000000F1
(1771640919.798161) can0 00000212#0000000028000000
(1771640919.809092) can0 00000132#0000002AF67A0000
(1771640919.843862) can0 000001C1#01005E0100000000
(1771640919.855141) can0 00000131#0000001BBF180000
(1771640919.856641) can0 00000211#0000000023000000
(1771640919.870374) can0 00000462#3A0E88400000008D
(1771640919.885947) can0 00000322#08000000000C3CA2
(1771640919.889785) can0 0757F803#0110100001010000
(1771640919.947885) can0 00090001#0100001B7D000000
(1771640919.959068) can0 00000251#6441000000000000
(1771640919.986333) can0 00000322#08000000002C3C0C
(1771640919.990464) can0 0757F80B#0110100002030000
(1771640920.001210) can0 00000212#0000000028000000
(1771640920.012169) can0 00000132#0000002CF97B0000
(1771640920.023307) can0 06081F82#1000004000000000
(1771640920.024856) can0 060F801A#42F0004000400000
(1771640920.025788) can0 06080F81#1000004000000000
(1771640920.027392) can0 060F8009#42F0004000400000
(1771640920.059873) can0 00000131#0000001BC3180000
(1771640920.061241) can0 00000211#0000000023000000
(1771640920.086742) can0 00000321#07000000004C3C00
(1771640920.088649) can0 00000322#08000000004C3CF9
(1771640920.101912) can0 00000461#010E8838000000F1
(1771640920.143254) can0 00000172#0006000000000000
(1771640920.144670) can0 00000172#0106000000000000
(1771640920.175175) can0 00000462#3A0E88400000008D
(1771640920.186170) can0 00000252#0542000000000000
(1771640920.187282) can0 00000322#08000000006C3C57
(1771640920.207292) can0 00000212#0000000028000000
(1771640920.218273) can0 00000132#0000002EFF7B0000
(1771640920.262891) can0 00000131#0000001CC6180000
(1771640920.264213) can0 00000211#0000000023000000
(1771640920.284852) can0 0757F803#0110100001010000
(1771640920.287540) can0 00000322#08000000008C3C14
(1771640920.359287) can0 000001B2#C8C807002F000800
(1771640920.364916) can0 00000251#6441000000000000
(1771640920.385361) can0 0757F80B#0110100002030000
(1771640920.387884) can0 00000322#0800000000AC3CBA
(1771640920.405825) can0 00000461#010E8838000000F1
(1771640920.410178) can0 00000212#0000000028000000
(1771640920.421131) can0 00000132#00000030027B0000
(1771640920.466885) can0 00000131#0000001CCA180000
(1771640920.468282) can0 00000211#0000000023000000
(1771640920.482087) can0 00000462#3A0E88400000008D
(1771640920.489141) can0 00000322#0800000000CC3C4F
(1771640920.589529) can0 00000321#0700000000EC3C18
(1771640920.591427) can0 00000322#0800000000EC3CE1
(1771640920.593262) can0 00000252#0542000000000000
(1771640920.614128) can0 00000212#0000000028000000
(1771640920.625039) can0 00000132#00000032067B0000
(1771640920.668892) can0 00000131#0000001DCC180000
(1771640920.670255) can0 00000211#0000000023000000
(1771640920.679813) can0 0757F803#0110100001010000
(1771640920.690030) can0 00000322#08000000000C3DA5
(1771640920.710881) can0 00000461#010E8838000000F1
(1771640920.741896) can0 00000171#0006000000000000
(1771640920.743266) can0 00000171#0106000000000000
(1771640920.760340) can0 06080F81#0300003000010000
(1771640920.761873) can0 060F8009#42F0003000010000
(1771640920.762784) can0 06081F82#0300003000010000
(1771640920.764240) can0 060F801A#42F0003000010000
(1771640920.773872) can0 00000251#6441000000000000
(1771640920.780345) can0 0757F80B#0110100002030000
(1771640920.784808) can0 000001B1#CECE07001DD20700
(1771640920.786137) can0 00000462#3A0E88400000008D
(1771640920.790969) can0 00000322#08000000002C3D0B
(1771640920.817183) can0 00000212#0000000028000000
(1771640920.828150) can0 00000132#00000034097B0000
(1771640920.839159) can0 00000112#4553505F43010000
(1771640920.867153) can0 06081F82#1000004000000000
(1771640920.868678) can0 060F801A#42F0004000400000
(1771640920.869630) can0 06080F81#1000004000000000
(1771640920.871225) can0 060F8009#42F0004000400000
(1771640920.876040) can0 00000131#0000001DD3190000
(1771640920.877465) can0 00000211#0000000023000000
(1771640920.880195) can0 00000402#7B00000000000000
(1771640920.881595) can0 00000422#340000000C0A0000
(1771640920.891299) can0 00000331#D0471F1E380000A4
(1771640920.893178) can0 00000322#08000000004C3DFE
(1771640920.898818) can0 000001A1#5A000800000001DB
(1771640920.991780) can0 00000322#08000000006C3D50
(1771640921.002160) can0 00000252#0542000000000000
(1771640921.019883) can0 00000461#010E884000000073
(1771640921.023224) can0 00000212#0000000028000000
(1771640921.034141) can0 00000132#000000360F7C0000
(1771640921.049178) can0 06080F81#1000000400000000
(1771640921.050655) can0 060F8009#41F0000441EB9800
(1771640921.051634) can0 06081F82#1000000400000000
(1771640921.053214) can0 060F801A#41F0000442023300
(1771640921.074976) can0 075D0003#A001100801800081
(1771640921.080898) can0 00000131#0000001ED7190000
(1771640921.082251) can0 00000211#0000000023000000
(1771640921.085194) can0 00000222#2800000007054200
(1771640921.086563) can0 00000202#1027D00758020000
(1771640921.095277) can0 00000321#07000000008C3DEA
(1771640921.097242) can0 00000462#3A0E88400000008D
(1771640921.098149) can0 00000322#08000000008C3D13
(1771640921.148130) can0 00000172#0006000000000000
(1771640921.149465) can0 00000172#0106000000000000
(1771640921.160238) can0 000001C2#01005E0100000000
(1771640921.161593) can0 00000232#1027D00758020000
(1771640921.175405) can0 0757F80B#0110100002030000
(1771640921.183010) can0 00000251#6441000000000000
(1771640921.195785) can0 00000322#0800000000AC3DBD
(1771640921.232170) can0 00000212#0000000028000000
(1771640921.243266) can0 00000132#00000038187C0000
(1771640921.245997) can0 00000332#D0471F9E3A000043
(1771640921.254042) can0 000001A2#5A000900000002B0
(1771640921.283931) can0 00000131#0000001FDA190000
(1771640921.285431) can0 00000211#0000000023000000
(1771640921.296236) can0 00000322#0800000000CC3D48
(1771640921.326894) can0 00000461#010E884000000073
(1771640921.360147) can0 0757F803#02F0000101010000
(1771640921.365239) can0 000001B2#DCDC07003A1A0900
(1771640921.376268) can0 00090002#0100001B7D000000
(1771640921.396681) can0 00000322#0800000000EC3DE6
(1771640921.398011) can0 00000462#3A0E88480000003D
(1771640921.409232) can0 00000252#0542000000000000
(1771640921.440223) can0 00000212#0000000028000000
(1771640921.451175) can0 00000132#0000003B1F7C0000
(1771640921.469838) can0 0757F803#0110100001010000
(1771640921.487845) can0 00000131#0000001FDD190000
(1771640921.489228) can0 00000211#0000000023000000
(1771640921.497189) can0 00000322#08000000000C3EAC
(1771640921.570624) can0 075D000B#A001100801800081
(1771640921.589909) can0 00000251#6441000000000000
(1771640921.599224) can0 00000321#07000000002C3EFB
(1771640921.601169) can0 00000322#08000000002C3E02
(1771640921.630835) can0 00000461#010E884000000073
(1771640921.642169) can0 00000212#0000000028000000
(1771640921.653263) can0 00000132#0000003D217C0000
(1771640921.691316) can0 06080F81#1000004000000000
(1771640921.692685) can0 00000131#00000020E1190000
(1771640921.693644) can0 06081F82#1000004000000000
(1771640921.695028) can0 00000211#0000000023000000
(1771640921.696195) can0 060F8009#42F0004000400000
(1771640921.697445) can0 060F801A#42F0004000400000
(1771640921.699613) can0 00000322#08000000004C3EF7
(1771640921.704264) can0 00000462#3A0E88480000003D
(1771640921.705799) can0 00000231#1027D00758020000
(1771640921.707107) can0 00000221#2300000000644100
(1771640921.708527) can0 00000201#1027D00758020000
(1771640921.750002) can0 00000171#0006000000000000
(1771640921.751492) can0 00000171#0106000000000000
(1771640921.792864) can0 000001B1#E2E2070020E80800
(1771640921.799999) can0 00000322#08000000006C3E59
(1771640921.815235) can0 00000252#0542000000000000
(1771640921.843916) can0 000001C1#01005E0100000000
(1771640921.846167) can0 00000212#0000000028000000
(1771640921.855729) can0 0757F80B#02F0000102030000
(1771640921.857076) can0 00000132#0000003F257C0000
(1771640921.864799) can0 0757F803#0110100001010000
(1771640921.894935) can0 00000131#00000020EA1A0000
(1771640921.896327) can0 00000211#0000000023000000
(1771640921.903286) can0 00000322#08000000008C3E1A
(1771640921.936908) can0 00000461#010E884000000073
(1771640921.947867) can0 00090001#0100001B7D000000
(1771640921.965432) can0 0757F80B#0110100002030000
(1771640921.998952) can0 00000251#6441000000000000
(1771640922.003744) can0 00000322#0800000000AC3EB4
(1771640922.008159) can0 00000462#3A0E88480000003D
(1771640922.049284) can0 00000212#0000000028000000
(1771640922.060270) can0 00000132#00000041287D0000
(1771640922.100195) can0 00000131#00000020EF1A0000
(1771640922.101526) can0 00000211#0000000023000000
(1771640922.104040) can0 00000321#0700000000CC3EB8
(1771640922.105934) can0 00000322#0800000000CC3E41
(1771640922.151355) can0 00000172#0006000000000000
(1771640922.152706) can0 00000172#0106000000000000
(1771640922.204489) can0 00000322#0800000000EC3EEF
(1771640922.224220) can0 00000252#0543000000000000
(1771640922.242942) can0 00000461#010E884000000073
(1771640922.255258) can0 00000212#0000000028000000
(1771640922.259760) can0 0757F803#0110100001010000
(1771640922.266278) can0 00000132#000000432D7D0000
(1771640922.303922) can0 00000131#00000021F21A0000
(1771640922.304896) can0 00000322#08000000000C3FAB
(1771640922.306291) can0 00000211#0000000023000000
(1771640922.317184) can0 00000462#3B0E8848000000E2
(1771640922.360348) can0 0757F80B#0110100002030000
(1771640922.368100) can0 000001B2#F0F00700442F0900
(1771640922.405426) can0 00000331#D0471F1E380000A4
(1771640922.406915) can0 00000251#6441000000000000
(1771640922.407807) can0 00000322#08000000002C3F05
(1771640922.417876) can0 000001A1#5A000900000001B9
(1771640922.459262) can0 00000212#0000000028000000
(1771640922.470145) can0 00000132#00000045317D0000
(1771640922.508894) can0 00000131#00000022F61A0000
(1771640922.509887) can0 00000322#08000000004C3FF0
(1771640922.511359) can0 00000211#0000000023000000
(1771640922.530394) can0 06080F81#1000004000000000
(1771640922.531943) can0 060F8009#42F0004000400000
(1771640922.532862) can0 06081F82#1000004000000000
(1771640922.534381) can0 060F801A#42F0004000400000
(1771640922.551936) can0 00000461#010E8848000000C3
(1771640922.587422) can0 06081F82#1000000400000000
(1771640922.588866) can0 060F801A#41F0000442023300
(1771640922.589801) can0 06080F81#1000000400000000
(1771640922.591400) can0 060F8009#41F0000441EB9800
(1771640922.613448) can0 00000321#07000000006C3FA7
(1771640922.615429) can0 00000322#08000000006C3F5E
(1771640922.621103) can0 00000462#3B0E8848000000E2
(1771640922.632236) can0 00000252#0543000000000000
(1771640922.655006) can0 075D0003#10F003C002000000
(1771640922.663284) can0 00000212#0000000028000000
(1771640922.674354) can0 00000132#00000047357D0000
(1771640922.712869) can0 00000131#00000023F91A0000
(1771640922.714305) can0 00000211#0000000023000000
(1771640922.715204) can0 00000322#08000000008C3F1D
(1771640922.754901) can0 00000171#0006000000000000
(1771640922.756075) can0 0757F80B#0110100002030000
(1771640922.757233) can0 00000171#0106000000000000
(1771640922.765145) can0 00000332#D0471F9E3A000043
(1771640922.775163) can0 000001A2#5A000A0000000216
(1771640922.798005) can0 000001B1#F6F6070023FD0900
(1771640922.808997) can0 00000251#6441000000000000
(1771640922.815310) can0 00000322#0800000000AC3FB3
(1771640922.859925) can0 00000461#010E8848000000C3
(1771640922.866209) can0 00000212#0000000028000000
(1771640922.877194) can0 00000132#0000004A387D0000
(1771640922.915724) can0 00000322#0800000000CC3F46
(1771640922.920951) can0 00000131#00000023001B0000
(1771640922.922211) can0 00000211#0000000023000000
(1771640922.928208) can0 00000462#3B0E885000000035
(1771640923.019544) can0 00000322#0800000000EC3FE8
(1771640923.039187) can0 00000252#0543000000000000
(1771640923.049831) can0 0757F803#0110100001010000
(1771640923.070144) can0 00000212#0000000028000000
(1771640923.081327) can0 00000132#0000004C3C7E0000
(1771640923.092353) can0 00000222#2800000007054300
(1771640923.093726) can0 00000202#1027D00758020000
(1771640923.119796) can0 00000321#07000000000C307F
(1771640923.121722) can0 00000322#08000000000C3086
(1771640923.123093) can0 00000131#00000024021B0000
(1771640923.124408) can0 00000211#0000000023000000
(1771640923.150655) can0 075D000B#10F003C002000000
(1771640923.155158) can0 00000172#0006000000000000
(1771640923.156598) can0 00000172#0106000000000000
(1771640923.165911) can0 00000461#010E8848000000C3
(1771640923.167184) can0 000001C2#01005E0100000000
(1771640923.168558) can0 00000232#1027D00758020000
(1771640923.217119) can0 00000251#6441000000000000
(1771640923.220214) can0 00000322#08000000002C3028
(1771640923.229151) can0 00000462#3B0E885000000035
(1771640923.270426) can0 00000212#0000000028000000
(1771640923.281144) can0 00000132#0000004E457E0000
(1771640923.327908) can0 00000131#00000024061B0000
(1771640923.329362) can0 00000211#0000000023000000
(1771640923.332828) can0 00000322#08000000004C30DD
(1771640923.372214) can0 000001B2#040407004F460A00
(1771640923.378451) can0 06080F81#1000004000000000
(1771640923.380025) can0 060F8009#42F0004000400000
(1771640923.380955) can0 06081F82#1000004000000000
(1771640923.382568) can0 060F801A#42F0004000400000
(1771640923.383739) can0 00090002#0100001B7D000000
(1771640923.433205) can0 00000322#08000000006C3073
(1771640923.444768) can0 0757F803#0110100001010000
(1771640923.445901) can0 00000252#0543000000000000
(1771640923.470974) can0 00000461#010E8848000000C3
(1771640923.477200) can0 00000212#0000000028000000
(1771640923.488257) can0 00000132#000000504A7E0000
(1771640923.529183) can0 00000462#3B0E885000000035
(1771640923.532079) can0 00000131#00000024091B0000
(1771640923.533426) can0 00000211#0000000023000000
(1771640923.535466) can0 00000322#08000000008C3030
(1771640923.545431) can0 0757F80B#0110100002030000
(1771640923.623930) can0 00000251#6441000000000000
(1771640923.635668) can0 00000321#0700000000AC3067
(1771640923.637643) can0 00000322#0800000000AC309E
(1771640923.680317) can0 00000212#0000000028000000
(1771640923.691175) can0 00000132#000000524D7E0000
(1771640923.715037) can0 00000231#1027D00758020000
(1771640923.716367) can0 00000221#2300000000644100
(1771640923.717640) can0 00000201#1027D00758020000
(1771640923.737915) can0 00000322#0800000000CC306B
(1771640923.739270) can0 00000131#000000250F1B0000
(1771640923.740710) can0 00000211#0000000023000000
(1771640923.761972) can0 00000171#0006000000000000
(1771640923.763378) can0 00000171#0106000000000000
(1771640923.773920) can0 00000461#010E8848000000C3
(1771640923.804887) can0 000001B1#0A0A070025140900
(1771640923.832248) can0 00000462#3B0E885000000035
(1771640923.839829) can0 0757F803#0110100001010000
(1771640923.841894) can0 00000322#0800000000EC30C5
(1771640923.845917) can0 000001C1#01005E0100000000
(1771640923.853239) can0 00000252#0543000000000000
(1771640923.884297) can0 00000212#0000000028000000
(1771640923.895107) can0 00000132#00000054517E0000
(1771640923.940396) can0 0757F80B#0110100002030000
(1771640923.942426) can0 00000331#D0471F1E380000A4
(1771640923.944389) can0 00000322#08000000000C3181
(1771640923.946900) can0 000001A1#5A000A000000011F
(1771640923.948232) can0 00000131#00000026171C0000
(1771640923.949628) can0 00000211#0000000023000000
(1771640923.960932) can0 00090001#0100001B7D000000
(1771640924.032048) can0 00000251#6441000000000000
(1771640924.042306) can0 00000322#08000000002C312F
(1771640924.082968) can0 00000461#010E885000000014
(1771640924.086177) can0 00000212#0000000028000000
(1771640924.097081) can0 00000132#00000056537F0000
(1771640924.109133) can0 06080F81#1000000400000000
(1771640924.110676) can0 060F8009#41F0000441EB9800
(1771640924.111650) can0 06081F82#1000000400000000
(1771640924.113218) can0 060F801A#41F0000442022700
(1771640924.138103) can0 00000462#3B0E885000000035
(1771640924.142549) can0 00000321#07000000004C3123
(1771640924.144418) can0 00000322#08000000004C31DA
(1771640924.153932) can0 00000131#000000271C1C0000
(1771640924.155337) can0 00000211#0000000023000000
(1771640924.159274) can0 00000172#0006000000000000
(1771640924.160567) can0 00000172#0106000000000000
(1771640924.215290) can0 06080F81#1000004000000000
(1771640924.216906) can0 060F8009#42F0004000400000
(1771640924.217776) can0 06081F82#1000004000000000
(1771640924.219437) can0 060F801A#42F0004000400000
(1771640924.234821) can0 075D0003#A001100801800081
(1771640924.243038) can0 00000322#08000000006C3174
(1771640924.261327) can0 00000252#0543000000000000
(1771640924.292480) can0 00000212#0000000028000000
(1771640924.293438) can0 00000332#D0471F9E3A000043
(1771640924.303092) can0 000001A2#5A000B0000000274
(1771640924.304408) can0 00000132#000000595A7F0000
(1771640924.335474) can0 0757F80B#0110100002030000
(1771640924.347017) can0 00000322#08000000008C3137
(1771640924.355913) can0 00000131#000000271E1C0000
(1771640924.357308) can0 00000211#0000000023000000
(1771640924.375144) can0 000001B2#181807005A5B0B00
(1771640924.388278) can0 00000461#010E885000000014
(1771640924.395303) can0 0757F803#02F0000101010000
(1771640924.439996) can0 00000251#6441000000000000
(1771640924.446372) can0 00000462#3B0E885800000085
(1771640924.447278) can0 00000322#0800000000AC3199
(1771640924.497203) can0 00000212#0000000028000000
(1771640924.508126) can0 00000132#0000005B5E7F0000
(1771640924.547722) can0 00000322#0800000000CC316C
(1771640924.560921) can0 00000131#00000027221C0000
(1771640924.562334) can0 00000211#0000000023000000
(1771640924.629855) can0 0757F803#0110100001010000
(1771640924.648814) can0 00000321#0700000000EC313B
(1771640924.650713) can0 00000322#0800000000EC31C2
(1771640924.669266) can0 00000252#0543110E14000000
(1771640924.692920) can0 00000461#010E885000000014
(1771640924.700218) can0 00000212#110E140028000000
(1771640924.711109) can0 00000132#0000005D617F0000
(1771640924.730400) can0 075D000B#A001100801800081
(1771640924.751722) can0 00000322#08000000000C3288
(1771640924.753014) can0 00000462#430E885B408B02CB
(1771640924.763867) can0 00000171#0006000000000000
(1771640924.765213) can0 00000171#0106000000000000
(1771640924.766586) can0 00000131#00000028271C0000
(1771640924.767989) can0 00000211#0000000023000000
(1771640924.808854) can0 000001B1#1E1E070028290A00
(1771640924.828304) can0 06081F82#0300003000000000
(1771640924.829780) can0 060F801A#42F0003000000000
(1771640924.830753) can0 06081F82#0300002100000000
(1771640924.832251) can0 060F801A#41F2002100000000
(1771640924.833194) can0 06081F82#0300001B00000000
(1771640924.834687) can0 060F801A#42F0001B00000000
(1771640924.839855) can0 00000251#6441000000000000
(1771640924.852197) can0 00000322#080000004025321D
(1771640924.879033) can0 06081F82#1000000200000000
(1771640924.880541) can0 060F801A#41F0000200000000
(1771640924.890698) can0 0757F80B#02F0000102030000
(1771640924.904184) can0 00000212#110E140028000000
(1771640924.915392) can0 00000132#0000005F647F0000
(1771640924.930424) can0 06081F82#1000000300000000
(1771640924.931966) can0 060F801A#41F000033D8A0000
(1771640924.958101) can0 00000322#0800000040C5325E
(1771640924.970868) can0 00000131#000000282B1D0000
(1771640924.972206) can0 00000211#0000000023000000
(1771640924.982427) can0 06081F82#1000004000000000
(1771640924.983896) can0 060F801A#42F0004000400000
(1771640924.988737) can0 00000332#D057009E3A0000DF
(1771640924.992943) can0 00000461#010E885000000014
(1771640924.996077) can0 000001A2#5A000C000000025D
(1771640925.019371) can0 00000322#08000000E0253352
(1771640925.024832) can0 0757F803#0110100001010000
(1771640925.039311) can0 06080F81#1000004000000000
(1771640925.040846) can0 060F8009#42F0004000400000
(1771640925.041803) can0 06081F82#1000000100000000
(1771640925.043301) can0 060F801A#41F0000140884800
(1771640925.057315) can0 00000462#43608863408B0226
(1771640925.078135) can0 00000252#0543110E14000000
(1771640925.090537) can0 06081F82#1000000200000000
(1771640925.092017) can0 060F801A#41F0000200000000
(1771640925.099209) can0 00000222#2800000008054300
(1771640925.100625) can0 00000202#1027140058020000
(1771640925.102548) can0 00000322#09000000E0A5333B
(1771640925.111140) can0 00000212#110E14002D000000
(1771640925.122111) can0 00000132#000000636B800000
(1771640925.125461) can0 0757F80B#0110100002030000
(1771640925.141847) can0 06081F82#1000000400000000
(1771640925.143344) can0 060F801A#41F0000442022700
(1771640925.153015) can0 00000321#0700000000FC3362
(1771640925.163254) can0 00000172#0006000000000000
(1771640925.164563) can0 00000172#0106000000000000
(1771640925.173898) can0 00000131#000000292E1D0000
(1771640925.175161) can0 000001C2#01005E0100000000
(1771640925.176331) can0 00000211#0000000023000000
(1771640925.177497) can0 00000232#1027140058020000
(1771640925.195368) can0 06081F82#1000004000000000
(1771640925.196940) can0 060F801A#42F0004000400000
(1771640925.197764) can0 00000332#D05740803A0000B4
(1771640925.206913) can0 00000322#09000000E045346D
(1771640925.208293) can0 000001A2#5A000D000000023F
(1771640925.246908) can0 00000251#6441000000000000
(1771640925.251324) can0 06081F82#1000000100000000
(1771640925.252842) can0 060F801A#41F0000140884800
(1771640925.297946) can0 00000461#010E885000000014
(1771640925.302347) can0 06081F82#1000000200000000
(1771640925.303858) can0 060F801A#41F0000200000000
(1771640925.313800) can0 00000322#09000000E0E53475
(1771640925.319149) can0 00000212#110E14002D000000
(1771640925.330087) can0 00000132#0000006672800000
(1771640925.359459) can0 06081F82#1000004000000000
(1771640925.360944) can0 060F801A#42F0004000400000
(1771640925.362069) can0 00000462#4360886B408B0296
(1771640925.363049) can0 06081F82#0300003000000000
(1771640925.364532) can0 060F801A#42F0003000000000
(1771640925.365478) can0 06081F82#03000021437C0000
(1771640925.366951) can0 060F801A#41F00021437C0000
(1771640925.367925) can0 06081F82#0300001B00000800
(1771640925.369454) can0 060F801A#42F0001B00000800
(1771640925.378906) can0 00000131#00000029321D0000
(1771640925.380283) can0 00000211#0000000023000000
(1771640925.383165) can0 000001B2#4E4E000066740D00
(1771640925.384574) can0 00090002#0100001B7D000000
(1771640925.413660) can0 06081F82#1000000100000000
(1771640925.415140) can0 060F801A#41F0000140885800
(1771640925.416065) can0 00000322#09000000E0853587
(1771640925.419929) can0 0757F803#0110100001010000
(1771640925.445939) can0 00000331#D0471F1E380000A4
(1771640925.450852) can0 000001A1#5A000B000000017D
(1771640925.469549) can0 06081F82#1000000200000000
(1771640925.471051) can0 060F801A#41F0000200000000
(1771640925.485146) can0 00000252#0543110E14000000
(1771640925.520386) can0 0757F80B#0110100002030000
(1771640925.522423) can0 06081F82#1000004000000000
(1771640925.523961) can0 060F801A#42F0004000400000
(1771640925.526225) can0 00000212#110E14002D000000
(1771640925.531291) can0 00000322#09000000E0F53525
(1771640925.537273) can0 00000132#0000006878800000
(1771640925.575324) can0 06081F82#1000000100000000
(1771640925.576850) can0 060F801A#41F0000140B13000
(1771640925.581891) can0 00000131#0000002A351D0000
(1771640925.583331) can0 00000211#0000000023000000
(1771640925.603903) can0 00000461#010E8858000000A4
(1771640925.630858) can0 06081F82#1000000200000000
(1771640925.632453) can0 060F801A#41F0000200000000
(1771640925.633350) can0 06080F81#1000000400000000
(1771640925.635055) can0 060F8009#41F0000441EB9800
(1771640925.635955) can0 00000322#0B000000E0853637
(1771640925.653043) can0 00000321#0700000000AC3675
(1771640925.655100) can0 00000251#6441000000000000
(1771640925.668381) can0 00000462#4360886B408B0296
(1771640925.682054) can0 06081F82#1000004000000000
(1771640925.683521) can0 060F801A#42F0004000400000
(1771640925.715940) can0 00000231#1027D00758020000
(1771640925.717287) can0 00000221#2300000000644100
(1771640925.718649) can0 00000201#1027D00758020000
(1771640925.729144) can0 00000212#110E140037000000
(1771640925.739397) can0 06081F82#1000000100000000
(1771640925.740768) can0 00000132#000000697B800000
(1771640925.741654) can0 00000322#0B000000E0253728
(1771640925.743025) can0 060F801A#41F0000140DE5800
(1771640925.769901) can0 00000171#0006000000000000
(1771640925.771285) can0 00000171#0106000000000000
(1771640925.781901) can0 00000131#0000002B3E1D0000
(1771640925.783240) can0 00000211#0000000023000000
(1771640925.790652) can0 06081F82#1000000200000000
(1771640925.792192) can0 060F801A#41F0000200000000
(1771640925.800682) can0 00000322#0E000000E085379A
(1771640925.813894) can0 000001B1#6A6A07002B400B00
(1771640925.815025) can0 0757F803#0110100001010000
(1771640925.842129) can0 06081F82#1000004000000000
(1771640925.843678) can0 060F801A#42F0004000400000
(1771640925.844631) can0 06080F81#1000004000000000
(1771640925.846194) can0 060F8009#42F0004000400000
(1771640925.854871) can0 000001C1#01005E0100000000
(1771640925.892216) can0 00000252#0543110E14000000
(1771640925.893204) can0 06081F82#1000000100000000
(1771640925.894731) can0 060F801A#41F0000141052400
(1771640925.895697) can0 06081F82#0300003000000000
(1771640925.897173) can0 060F801A#42F0003000000000
(1771640925.898162) can0 06081F82#0300002143B40000
(1771640925.899682) can0 060F801A#41F0002143B40000
(1771640925.900628) can0 06081F82#0300001B00000800
(1771640925.902145) can0 060F801A#42F0001B00000800
(1771640925.903073) can0 00000322#0E000000E02538AF
(1771640925.905908) can0 00000461#010E8858000000A4
(1771640925.915508) can0 0757F80B#0110100002030000
(1771640925.933166) can0 00000212#110E140046000000
(1771640925.944111) can0 00000132#0000006C7E800000
(1771640925.949552) can0 06081F82#1000000200000000
(1771640925.951039) can0 060F801A#41F0000200000000
(1771640925.965424) can0 00000322#11000000E085389D
(1771640925.967104) can0 00090001#0100001B7D000000
(1771640925.975250) can0 00000462#4360886B408B0296
(1771640925.987867) can0 00000131#0000002B441E0000
(1771640925.989265) can0 00000211#0000000023000000
(1771640926.007423) can0 06081F82#1000000300000000
(1771640926.008837) can0 060F801A#41F000033D8A0000
(1771640926.059955) can0 00000251#6441000000000000
(1771640926.062025) can0 06081F82#1000004000000000
(1771640926.063537) can0 060F801A#42F0004000000000
(1771640926.067012) can0 00000322#11000000E0253982
(1771640926.114133) can0 06081F82#1000000100000000
(1771640926.115551) can0 060F801A#41F0000141F71200
(1771640926.136265) can0 00000212#110E140055000000
(1771640926.147150) can0 00000132#0000006E81810000
(1771640926.158413) can0 00000321#0700000000BC390F
(1771640926.167352) can0 06081F82#1000000200000000
(1771640926.168684) can0 00000172#0006000000000000
(1771640926.169630) can0 00000322#3E000000E0C53999
(1771640926.170994) can0 00000172#0106000000000000
(1771640926.172211) can0 060F801A#41F0000200000000
(1771640926.190848) can0 00000131#0000002C471E0000
(1771640926.192223) can0 00000211#0000000023000000
(1771640926.209867) can0 0757F803#0110100001010000
(1771640926.213092) can0 00000461#010E8858000000A4
(1771640926.218504) can0 06081F82#1000000400000000
(1771640926.220004) can0 060F801A#41F0000442021100
(1771640926.271431) can0 00000322#3E000000E0653A88
(1771640926.275348) can0 06081F82#1000004000000000
(1771640926.276841) can0 060F801A#42F0004000000000
(1771640926.282384) can0 00000462#4360886B408B0296
(1771640926.293121) can0 00000252#0543110E14000000
(1771640926.310561) can0 0757F80B#0110100002030000
(1771640926.326511) can0 06081F82#1000000100000000
(1771640926.327999) can0 060F801A#41F00001429B2F80
(1771640926.344184) can0 00000212#110E140036010000
(1771640926.355224) can0 00000132#0000007087810000
(1771640926.372692) can0 00000322#3E000000E0053B7A
(1771640926.379309) can0 06081F82#1000000200000000
(1771640926.380830) can0 060F801A#41F0000200000000
(1771640926.386147) can0 000001B2#B0A6000071880D00
(1771640926.393915) can0 00000131#0000002C4A1E0000
(1771640926.395259) can0 00000211#0000000023000000
(1771640926.430361) can0 06081F82#1000004000000000
(1771640926.431887) can0 060F801A#42F0004000000000
(1771640926.432823) can0 06081F82#0300002143B40000
(1771640926.434353) can0 060F801A#41F0002143B40000
(1771640926.435303) can0 06081F82#0300001B00000800
(1771640926.436755) can0 060F801A#42F0001B00000800
(1771640926.437675) can0 00000322#9B000000E0653B0E
(1771640926.465877) can0 00000251#6441000000000000
(1771640926.491454) can0 06081F82#1000000100000000
(1771640926.492807) can0 060F801A#41F0000142FACD00
(1771640926.516975) can0 00000461#010E8858000000A4
(1771640926.539343) can0 00000322#9B000000E0053CEE
(1771640926.542644) can0 06081F82#1000000200000000
(1771640926.544192) can0 060F801A#41F0000200000000
(1771640926.547171) can0 00000212#110E140007030000
(1771640926.558138) can0 00000132#000000738A810000
(1771640926.589080) can0 00000462#4360886B408B0296
(1771640926.598404) can0 00000131#0000002C4E1E0000
(1771640926.599340) can0 06081F82#1000004000000000
(1771640926.600701) can0 00000211#0000000023000000
(1771640926.601648) can0 00000322#FB000000E0553C06
(1771640926.603000) can0 060F801A#42F0004000000000
(1771640926.605088) can0 075D0003#10F003C002000000
(1771640926.650739) can0 06080F81#1000004000000000
(1771640926.652273) can0 060F8009#42F0004000400000
(1771640926.653282) can0 06081F82#1000000100000000
(1771640926.654764) can0 060F801A#41F00001432D2740
(1771640926.672629) can0 00000321#0700000000BC3C14
(1771640926.700145) can0 00000252#0543110E14000000
(1771640926.705432) can0 0757F80B#0110100002030000
(1771640926.707440) can0 06081F82#1000000200000000
(1771640926.708992) can0 060F801A#41F0000200000000
(1771640926.709894) can0 00000322#FB000000E0E53C49
(1771640926.711820) can0 00000332#D05740803A0000B4
(1771640926.721186) can0 000001A2#5A000E0000000299
(1771640926.752170) can0 00000212#110E1400E7040000
(1771640926.758341) can0 06081F82#1000004000000000
(1771640926.759858) can0 060F801A#42F0004000000000
(1771640926.763203) can0 00000132#000000768F810000
(1771640926.771495) can0 00000322#5A010000E0453D8B
(1771640926.772866) can0 00000171#0006000000000000
(1771640926.774268) can0 00000171#0106000000000000
(1771640926.804911) can0 00000131#0000002D521E0000
(1771640926.806228) can0 00000211#0000000023000000
(1771640926.815384) can0 06081F82#1000000100000000
(1771640926.816821) can0 060F801A#41F00001435F7400
(1771640926.817908) can0 00000461#010E8858000000A4
(1771640926.819236) can0 000001B1#CBCB07002D550B00
(1771640926.866681) can0 06081F82#1000000200000000
(1771640926.868408) can0 060F801A#41F0000200000000
(1771640926.869342) can0 00000322#BF010000E0D53DAE
(1771640926.870660) can0 00000251#6441000000000000
(1771640926.894139) can0 00000462#43608873408B0241
(1771640926.923295) can0 06081F82#1000004000000000
(1771640926.924873) can0 060F801A#42F0004000000000
(1771640926.950489) can0 00000331#D0471F1E380000A4
(1771640926.955244) can0 00000212#110E1400BB080000
(1771640926.961855) can0 000001A1#5A000C0000000154
(1771640926.966212) can0 00000132#0000007892810000
(1771640926.973327) can0 00000322#BF010000E0753EBF
(1771640926.975211) can0 06081F82#1000000100000000
(1771640926.976680) can0 060F801A#41F0000143737340
(1771640926.977626) can0 06081F82#0300002143B40000
(1771640926.979180) can0 060F801A#41F0002143B40000
(1771640926.980128) can0 06081F82#0300001B00000800
(1771640926.981668) can0 060F801A#42F0001B00000800
(1771640926.999825) can0 0757F803#0110100001010000
(1771640927.012972) can0 00000131#0000002E581F0000
(1771640927.014352) can0 00000211#0000000023000000
(1771640927.026340) can0 06081F82#1000000200000000
(1771640927.027869) can0 060F801A#41F0000200000000
(1771640927.041462) can0 00000322#E7010000E0D53EDB
(1771640927.078337) can0 06081F82#1000000300000000
(1771640927.079849) can0 060F801A#41F000033D8A0000
(1771640927.100726) can0 075D000B#10F003C048000000
(1771640927.107109) can0 00000252#0543110E14000000
(1771640927.108401) can0 00000222#8309000008054300
(1771640927.109732) can0 00000202#1027140005000000
(1771640927.124997) can0 00000461#010E8860000000BD
(1771640927.135388) can0 06081F82#1000004000000000
(1771640927.137004) can0 060F801A#42F0004000000000
(1771640927.137807) can0 06080F81#1000000400000000
(1771640927.139335) can0 060F8009#41F0000441EB9800
(1771640927.143009) can0 00000322#E7010000E0753FC4
(1771640927.161463) can0 00000212#110E140083090000
(1771640927.172500) can0 00000172#0006000000000000
(1771640927.173475) can0 00000172#0106000000000000
(1771640927.174455) can0 00000321#0700000000AC3F4A
(1771640927.175807) can0 00000132#0000007B99820000
(1771640927.186629) can0 06081F82#1000000100000000
(1771640927.187957) can0 000001C2#01005E0100000000
(1771640927.189087) can0 060F801A#41F00001437B5680
(1771640927.190263) can0 00000232#1027140005000000
(1771640927.201299) can0 00000462#43608873408B0241
(1771640927.215934) can0 00000131#0000002F5B1F0000
(1771640927.217286) can0 00000211#0000000023000000
(1771640927.243376) can0 06081F82#1000000200000000
(1771640927.244923) can0 060F801A#41F0000200000000
(1771640927.245740) can0 00000322#F7010000E01530CF
(1771640927.277893) can0 00000251#6441000000000000
(1771640927.294436) can0 06081F82#1000000400000000
(1771640927.295898) can0 060F801A#41F0000442020000
(1771640927.346479) can0 00000322#F7010000E0B530D7
(1771640927.348379) can0 06081F82#1000004000000000
(1771640927.349897) can0 060F801A#42F0004000000000
(1771640927.362202) can0 00000212#110E1400D3090000
(1771640927.373423) can0 00000132#0000007D9E820000
(1771640927.384188) can0 00090002#0100001B7D000000
(1771640927.394873) can0 075D0003#A001100801800081
(1771640927.395962) can0 000001B2#0B0B00007DA00E00
(1771640927.398058) can0 06081F82#1000000100000000
(1771640927.399493) can0 060F801A#41F00001437B9B80
(1771640927.418893) can0 00000131#0000002F5E1F0000
(1771640927.420183) can0 00000211#0000000023000000
(1771640927.430133) can0 0757F803#02F0000101010000
(1771640927.431266) can0 00000461#010E8860000000BD
(1771640927.451395) can0 06081F82#1000000200000000
(1771640927.452856) can0 060F801A#41F0000200000000
(1771640927.453818) can0 06080F81#1000004000000000
(1771640927.455410) can0 060F8009#42F0004000400000
(1771640927.456299) can0 00000322#F7010000E0553193
(1771640927.495416) can0 0757F80B#0110100002030000
(1771640927.502654) can0 06081F82#1000004000000000
(1771640927.504100) can0 060F801A#42F0004000000000
(1771640927.505040) can0 06081F82#0300002143B40000
(1771640927.506592) can0 060F801A#41F0002143B40000
(1771640927.507703) can0 00000462#43608873408B0241
(1771640927.508660) can0 06081F82#0300001B00000800
(1771640927.509956) can0 00000252#0543110E14000000
(1771640927.511159) can0 060F801A#42F0001B00000800
(1771640927.557915) can0 06081F82#1000000100000000
(1771640927.559385) can0 060F801A#41F00001437BBA40
(1771640927.560301) can0 00000322#F7010000E0F5318B
(1771640927.571128) can0 00000212#110E1400D3090000
(1771640927.582092) can0 00000132#0000007FA4820000
(1771640927.609249) can0 06081F82#1000000200000000
(1771640927.610796) can0 060F801A#41F0000200000000
(1771640927.621894) can0 00000131#0000002F611F0000
(1771640927.623248) can0 00000211#0000000023000000
(1771640927.658756) can0 00000322#F7010000E0853220
(1771640927.662022) can0 06081F82#1000004000000000
(1771640927.663529) can0 060F801A#42F0004000000000
(1771640927.679350) can0 00000321#0700000000AC3269
(1771640927.684011) can0 00000251#6441000000000000
(1771640927.724880) can0 00000231#1027D00758020000
(1771640927.726345) can0 00000221#2300000000644100
(1771640927.727312) can0 06081F82#1000000100000000
(1771640927.728662) can0 00000201#1027D00758020000
(1771640927.729796) can0 060F801A#41F00001437BCEC0
(1771640927.739854) can0 00000461#010E8860000000BD
(1771640927.765206) can0 00000322#F7010000E025333F
(1771640927.773111) can0 00000212#110E1400D3090000
(1771640927.780957) can0 00000171#0006000000000000
(1771640927.782259) can0 00000171#0106000000000000
(1771640927.783272) can0 06081F82#1000000200000000
(1771640927.784735) can0 00000132#00000081A6820000
(1771640927.785813) can0 060F801A#41F0000200000000
(1771640927.789767) can0 0757F803#0110100001010000
(1771640927.815139) can0 00000462#43608873408B0241
(1771640927.823029) can0 000001B1#2A2A0700306A0C00
(1771640927.824346) can0 00000131#000000306B200000
(1771640927.825785) can0 00000211#0000000023000000
(1771640927.833540) can0 00000322#F8010000E08533DE
(1771640927.835482) can0 06081F82#1000004000000000
(1771640927.837034) can0 060F801A#42F0004000000000
(1771640927.856941) can0 000001C1#01005E0100000000
(1771640927.890418) can0 075D000B#A001000901800000
(1771640927.891425) can0 06081F82#1000000100000000
(1771640927.892897) can0 060F801A#41F00001437BDD40
(1771640927.916249) can0 00000252#0543110E14000000
(1771640927.925719) can0 0757F80B#02F0000102030000
(1771640927.939301) can0 00000322#F8010000E02534D3
(1771640927.942459) can0 06081F82#1000000200000000
(1771640927.943985) can0 060F801A#41F0000200000000
(1771640927.967905) can0 00090001#0100001B7D000000
(1771640927.977128) can0 00000212#110E1400D8090000
(1771640927.988120) can0 00000132#00000083AA820000
(1771640927.993750) can0 06081F82#1000004000000000
(1771640927.995264) can0 060F801A#42F0004000000000
(1771640928.028915) can0 00000131#000000306F200000
(1771640928.030301) can0 00000211#0000000023000000
(1771640928.040939) can0 00000461#010E8860000000BD
(1771640928.045223) can0 00000322#F8010000E0C53490
(1771640928.055361) can0 06081F82#1000000100000000
(1771640928.056812) can0 060F801A#41F00001437BE7C0
(1771640928.057721) can0 06081F82#0300002143B40000
(1771640928.059268) can0 060F801A#41F0002143B40000
(1771640928.060198) can0 06081F82#0300001B00000800
(1771640928.061749) can0 060F801A#42F0001B00000800
(1771640928.091895) can0 00000251#6441000000000000
(1771640928.106517) can0 06081F82#1000000200000000
(1771640928.107986) can0 060F801A#41F0000200000000
(1771640928.119168) can0 00000462#43608873408B0241
(1771640928.152081) can0 00000322#F8010000E065358F
(1771640928.163345) can0 06081F82#1000000300000000
(1771640928.164843) can0 060F801A#41F000033D8A0000
(1771640928.180245) can0 00000172#0006000000000000
(1771640928.181697) can0 00000172#0106000000000000
(1771640928.182597) can0 00000321#07000000009C3585
(1771640928.183933) can0 00000212#110E1400D8090000
(1771640928.185109) can0 0757F803#0110100001010000
(1771640928.195156) can0 00000132#00000085AF830000
(1771640928.213169) can0 00000332#D05740803A0000B4
(1771640928.215004) can0 06081F82#1000004000000000
(1771640928.216384) can0 000001A2#5A000F00000002FB
(1771640928.217555) can0 060F801A#42F0004000000000
(1771640928.232846) can0 00000131#0000003173200000
(1771640928.234207) can0 00000211#0000000023000000
(1771640928.257442) can0 00000322#F8010000E0053673
(1771640928.266051) can0 06080F81#1000004000000000
(1771640928.267652) can0 060F8009#42F0004000400000
(1771640928.268583) can0 06081F82#1000000100000000
(1771640928.270094) can0 060F801A#41F00001437BF000
(1771640928.285454) can0 0757F80B#0110100002030000
(1771640928.317302) can0 00000252#0543110E14000000
(1771640928.323303) can0 06081F82#1000000200000000
(1771640928.324839) can0 060F801A#41F0000200000000
(1771640928.345022) can0 00000461#010E8860000000BD
(1771640928.359277) can0 00000322#F8010000E0953692
(1771640928.375372) can0 06081F82#1000000400000000
(1771640928.376855) can0 060F801A#41F0000442020000
(1771640928.388137) can0 00000212#110E1400D8090000
(1771640928.399061) can0 000001B2#6969000088B30F00
(1771640928.400365) can0 00000132#00000088B4830000
(1771640928.421078) can0 00000462#4360887B408B02F1
(1771640928.427288) can0 06081F82#1000004000000000
(1771640928.428830) can0 060F801A#42F0004000000000
(1771640928.435909) can0 00000131#0000003176200000
(1771640928.437196) can0 00000211#0000000023000000
(1771640928.451206) can0 00000331#D0471F1E380000A4
(1771640928.457910) can0 000001A1#5A000D0000000136
(1771640928.461459) can0 00000322#F8010000E02537DA
(1771640928.478490) can0 06081F82#1000000100000000
(1771640928.479894) can0 060F801A#41F00001437BF600
(1771640928.498877) can0 00000251#6441000000000000
(1771640928.535296) can0 06081F82#1000000200000000
(1771640928.536858) can0 060F801A#41F0000200000000
(1771640928.567503) can0 00000322#F8010000E0B5373B
(1771640928.579831) can0 0757F803#0110100001010000
(1771640928.587380) can0 06081F82#1000004000000000
(1771640928.588963) can0 060F801A#42F0004000000000
(1771640928.589840) can0 06081F82#0300002143B40000
(1771640928.591399) can0 060F801A#41F0002143B40000
(1771640928.592538) can0 00000212#110E1400D8090000
(1771640928.593526) can0 06081F82#0300001B00000800
(1771640928.595096) can0 060F801A#42F0001B00000800
(1771640928.603136) can0 00000132#0000008AB7830000
(1771640928.639013) can0 06081F82#1000000100000000
(1771640928.640255) can0 00000131#000000327A200000
(1771640928.641329) can0 06080F81#1000000400000000
(1771640928.642605) can0 00000211#0000000023000000
(1771640928.643781) can0 060F8009#41F0000441EB9800
(1771640928.644970) can0 060F801A#41F00001437D6500
(1771640928.654326) can0 00000461#010E88680000000D
(1771640928.669285) can0 00000322#F8010000E0553855
(1771640928.680477) can0 0757F80B#0110000002030000
(1771640928.683354) can0 00000321#07000000006C38B2
(1771640928.695387) can0 06081F82#1000000200000000
(1771640928.697007) can0 060F801A#41F0000200000000
(1771640928.724132) can0 00000462#4360887B408B02F1
(1771640928.725448) can0 00000252#0543110E14000000
(1771640928.735099) can0 00000322#FB010000E0B53870
(1771640928.750234) can0 06081F82#1000004000000000
(1771640928.751793) can0 060F801A#42F0004000000000
(1771640928.784897) can0 00000171#0006000000000000
(1771640928.786214) can0 00000171#0106000000000000
(1771640928.796293) can0 00000212#110E1400E7090000
(1771640928.803306) can0 06081F82#1000000100000000
(1771640928.804770) can0 060F801A#41F0000143874E40
(1771640928.807164) can0 00000132#0000008CBB830000
(1771640928.826829) can0 000001B1#86860700337F0D00
(1771640928.841676) can0 00000322#FB010000E0553934
(1771640928.847902) can0 00000131#0000003380210000
(1771640928.849252) can0 00000211#0000000023000000
(1771640928.860372) can0 06081F82#1000000200000000
(1771640928.861849) can0 060F801A#41F0000200000000
(1771640928.899953) can0 00000251#6441000000000000
(1771640928.905464) can0 00000322#1D020000E0B539AE
(1771640928.915339) can0 06081F82#1000004000000000
(1771640928.916859) can0 060F801A#42F0004000000000
(1771640928.960905) can0 00000461#010E88680000000D
(1771640928.968853) can0 06081F82#1000000100000000
(1771640928.970615) can0 060F801A#41F00001439218E0
(1771640928.974944) can0 0757F803#0110100001010000
(1771640928.998169) can0 00000212#110E1400910A0000
(1771640929.009085) can0 00000132#0000008EBD840000
(1771640929.010033) can0 00000322#1D020000E0553AE4
(1771640929.027568) can0 06081F82#1000000200000000
(1771640929.029039) can0 060F801A#41F0000200000000
(1771640929.030154) can0 00000462#4360887B408B02F1
(1771640929.051929) can0 00000131#0000003384210000
(1771640929.053299) can0 00000211#0000000023000000
(1771640929.075438) can0 0757F80B#0110000002030000
(1771640929.077413) can0 00000322#48020000E0B53A9B
(1771640929.079317) can0 06081F82#1000004000000000
(1771640929.080884) can0 060F801A#42F0004000000000
(1771640929.081833) can0 06080F81#1000004000000000
(1771640929.083373) can0 060F8009#42F0004000400000
(1771640929.111164) can0 00000222#680B000008054300
(1771640929.112471) can0 00000202#1027140005000000
(1771640929.133281) can0 00000252#0543110E14000000
(1771640929.135432) can0 06081F82#1000000100000000
(1771640929.136893) can0 060F801A#41F00001439E3D40
(1771640929.137793) can0 06081F82#0300002143B40000
(1771640929.139356) can0 060F801A#41F0002143B40000
(1771640929.140276) can0 06081F82#0300001B00000800
(1771640929.141849) can0 060F801A#42F0001B00000800
(1771640929.184570) can0 00000172#0006000000000000
(1771640929.185542) can0 00000321#07000000005C3B42
(1771640929.186872) can0 00000172#0106000000000000
(1771640929.187849) can0 00000322#48020000E0553BDF
(1771640929.189771) can0 06081F82#1000000200000000
(1771640929.191323) can0 060F801A#41F0000200000000
(1771640929.198243) can0 000001C2#01005E0100000000
(1771640929.199594) can0 00000232#1027140005000000
(1771640929.200970) can0 00000212#110E1400680B0000
(1771640929.212087) can0 00000132#00000091C7840000
(1771640929.242109) can0 06081F82#1000000300000000
(1771640929.243623) can0 060F801A#41F000033D8A0000
(1771640929.246571) can0 00000322#79020000E0B53B31
(1771640929.253943) can0 00000131#0000003486210000
(1771640929.255303) can0 00000211#0000000023000000
(1771640929.265878) can0 00000461#010E88680000000D
(1771640929.294165) can0 06081F82#1000004000000000
(1771640929.295721) can0 060F801A#42F0004000000000
(1771640929.306867) can0 00000251#6441000000000000
(1771640929.333177) can0 00000462#4360887B408B02F1
(1771640929.348041) can0 06081F82#1000000100000000
(1771640929.349533) can0 060F801A#41F0000143ABBCE0
(1771640929.351489) can0 00000322#79020000E0553C67
(1771640929.369869) can0 0757F803#0110100001010000
(1771640929.384367) can0 00090002#0100001B7D000000
(1771640929.399331) can0 06081F82#1000000200000000
(1771640929.400828) can0 060F801A#41F0000200000000
(1771640929.405130) can0 000001B2#C5C5000093CA0F00
(1771640929.406423) can0 00000212#110E14005D0C0000
(1771640929.412386) can0 00000322#AF020000E0B53CF4
(1771640929.417193) can0 00000132#00000094CC840000
(1771640929.455439) can0 06081F82#1000000400000000
(1771640929.456970) can0 060F801A#41F0000442020100
(1771640929.458099) can0 00000131#000000348A210000
(1771640929.459599) can0 00000211#0000000023000000
(1771640929.470636) can0 0757F80B#0110000002030000
(1771640929.510233) can0 06081F82#1000004000000000
(1771640929.511852) can0 060F801A#42F0004000000000
(1771640929.523385) can0 00000322#AF020000E0553DB0
(1771640929.538061) can0 00000252#0543110E14000000
(1771640929.561941) can0 06081F82#1000000100000000
(1771640929.563474) can0 060F801A#41F0000143B3A1E0
(1771640929.570996) can0 00000461#010E88680000000D
(1771640929.609455) can0 00000212#110E14006B0D0000
(1771640929.615260) can0 06081F82#1000000200000000
(1771640929.616895) can0 060F801A#41F0000200000000
(1771640929.620203) can0 00000132#00000095CF840000
(1771640929.624620) can0 00000322#CF020000E0F53D4C
(1771640929.641167) can0 00000462#4360887B408B02F1
(1771640929.651995) can0 00000401#2100000000000000
(1771640929.653435) can0 00000421#340000008E020000
(1771640929.664946) can0 00000131#000000348F210000
(1771640929.666529) can0 00000211#0000000023000000
(1771640929.671349) can0 06081F82#1000004000000000
(1771640929.672912) can0 060F801A#42F0004000000000
(1771640929.673809) can0 06081F82#0300002143B40000
(1771640929.675363) can0 060F801A#41F0002143B40000
(1771640929.676324) can0 06081F82#0300001B00000800
(1771640929.677955) can0 060F801A#42F0001B00000800
(1771640929.685557) can0 00000321#07000000005C3E59
(1771640929.707973) can0 00000251#6441000000000000
(1771640929.716905) can0 00000332#D05740803A0000B4
(1771640929.722171) can0 000001A2#5A001000000002F9
(1771640929.724291) can0 06081F82#1000000100000000
(1771640929.725773) can0 060F801A#41F0000143B3BF00
(1771640929.727740) can0 00000322#CF020000E0953EB0
(1771640929.729149) can0 00000231#1027D00758020000
(1771640929.730464) can0 00000221#2300000000644100
(1771640929.731818) can0 00000201#1027D00758020000
(1771640929.764971) can0 0757F803#0110100001010000
(1771640929.778974) can0 06081F82#1000000200000000
(1771640929.780733) can0 060F801A#41F0000200000000
(1771640929.792893) can0 00000171#0006000000000000
(1771640929.794305) can0 00000171#0106000000000000
(1771640929.813128) can0 00000212#110E14000B0E0000
(1771640929.824136) can0 00000132#00000098D3840000
(1771640929.828846) can0 00000322#CF020000E0353FAF
(1771640929.834922) can0 000001B1#E5E5070035970D00
(1771640929.835906) can0 06081F82#1000004000000000
(1771640929.837467) can0 060F801A#42F0004000000000
(1771640929.865567) can0 0757F80B#0110000002030000
(1771640929.866729) can0 000001C1#01005E0100000000
(1771640929.868049) can0 00000131#0000003599220000
(1771640929.869431) can0 00000211#0000000023000000
(1771640929.880387) can0 00000461#010E88680000000D
(1771640929.886922) can0 06080F81#1000004000000000
(1771640929.888447) can0 060F8009#42F0004000400000
(1771640929.889433) can0 06081F82#1000000100000000
(1771640929.890964) can0 060F801A#41F0000143B3D280
(1771640929.930385) can0 00000322#CF020000E0D53FEC
(1771640929.939281) can0 06081F82#1000000200000000
(1771640929.940860) can0 060F801A#41F0000200000000
(1771640929.945629) can0 00000462#43608883408B0242
(1771640929.947127) can0 00000252#0543110E14000000
(1771640929.962822) can0 00000331#D0471F1E380000A4
(1771640929.970820) can0 000001A1#5A000E0000000190
(1771640929.972207) can0 00090001#0100001B7D000000
(1771640929.991440) can0 06081F82#1000004000000000
(1771640929.992908) can0 060F801A#42F0004000000000
(1771640930.018143) can0 00000212#110E14000B0E0000
(1771640930.029082) can0 00000132#0000009AD7850000
(1771640930.031254) can0 00000322#CF020000E065308E
(1771640930.045895) can0 06081F82#1000000100000000
(1771640930.047369) can0 060F801A#41F0000143B3DF80
(1771640930.072863) can0 00000131#000000369E220000
(1771640930.074208) can0 00000211#0000000023000000
(1771640930.099402) can0 06081F82#1000000200000000
(1771640930.100934) can0 060F801A#41F0000200000000
(1771640930.114949) can0 00000251#6441000000000000
(1771640930.140171) can0 00000322#CF020000E005317C
(1771640930.154279) can0 06081F82#1000004000000000
(1771640930.155798) can0 060F801A#42F0004000000000
(1771640930.156785) can0 06080F81#1000000400000000
(1771640930.158234) can0 060F8009#41F0000441EB9800
(1771640930.159872) can0 0757F803#0110100001010000
(1771640930.185904) can0 00000461#010E8870000000DA
(1771640930.190177) can0 00000172#0006000000000000
(1771640930.191037) can0 00000321#07000000005C3174
(1771640930.192441) can0 00000172#0106000000000000
(1771640930.207336) can0 06081F82#1000000100000000
(1771640930.208860) can0 060F801A#41F0000143B3FBE0
(1771640930.209802) can0 06081F82#0300002143B40000
(1771640930.211419) can0 060F801A#41F0002143B40000
(1771640930.212258) can0 06081F82#0300001B00000800
(1771640930.213870) can0 060F801A#42F0001B00000800
(1771640930.223145) can0 00000212#110E14000B0E0000
(1771640930.234169) can0 00000132#0000009CDB850000
(1771640930.242042) can0 00000322#CF020000E0A53164
(1771640930.245093) can0 00000462#43608883408B0242
(1771640930.258553) can0 06081F82#1000000200000000
(1771640930.260073) can0 060F801A#41F0000200000000
(1771640930.261220) can0 0757F80B#0110000002030000
(1771640930.276925) can0 00000131#00000037A2220000
(1771640930.278246) can0 00000211#0000000023000000
(1771640930.306083) can0 00000322#D0020000E005325F
(1771640930.315285) can0 06081F82#1000000300000000
(1771640930.316797) can0 060F801A#41F000033D8A0000
(1771640930.346162) can0 00000252#0543110E14000000
(1771640930.372121) can0 06081F82#1000004000000000
(1771640930.373687) can0 060F801A#42F0004000000000
(1771640930.407180) can0 000001B2#202000009EDE1000
(1771640930.408056) can0 00000322#D0020000E0A53247
(1771640930.423347) can0 06081F82#1000000100000000
(1771640930.424820) can0 060F801A#41F0000143B40D40
(1771640930.428256) can0 00000212#110E1400100E0000
(1771640930.439365) can0 00000132#0000009FE0850000
(1771640930.465154) can0 0757F803#02F0000101010000
(1771640930.474748) can0 06081F82#1000000200000000
(1771640930.476280) can0 060F801A#41F0000200000000
(1771640930.479156) can0 00000131#00000037A4220000
(1771640930.480581) can0 00000211#0000000023000000
(1771640930.491921) can0 00000461#010E8870000000DA
(1771640930.509233) can0 00000322#D0020000E0453303
(1771640930.523013) can0 00000251#6441000000000000
(1771640930.531348) can0 06081F82#1000000400000000
(1771640930.532856) can0 060F801A#41F0000442020000
(1771640930.550138) can0 00000462#43608883408B0242
(1771640930.555097) can0 075D0003#10F003C002000000
(1771640930.587433) can0 06081F82#1000004000000000
(1771640930.588970) can0 060F801A#42F0004000000000
(1771640930.610795) can0 00000322#D0020000E0E5331B
(1771640930.631167) can0 00000212#110E1400100E0000
(1771640930.639046) can0 06081F82#1000000100000000
(1771640930.640644) can0 060F801A#41F0000143B40F60
(1771640930.642089) can0 00000132#000000A1E3850000
(1771640930.655535) can0 0757F80B#0110000002030000
(1771640930.683968) can0 00000131#00000037A8220000
(1771640930.685429) can0 00000211#0000000023000000
(1771640930.693671) can0 00000321#07000000006C3496
(1771640930.695628) can0 06081F82#1000000200000000
(1771640930.697199) can0 060F801A#41F0000200000000
(1771640930.698107) can0 06080F81#1000004000000000
(1771640930.699675) can0 060F8009#42F0004000400000
(1771640930.714153) can0 00000322#D0020000E08534FB
(1771640930.746429) can0 06081F82#1000004000000000
(1771640930.748002) can0 060F801A#42F0004000000000
(1771640930.748884) can0 06081F82#0300002143B40000
(1771640930.750881) can0 060F801A#41F0002143B40000
(1771640930.751778) can0 06081F82#0300001B00000800
(1771640930.753334) can0 00000252#0543110E14000000
(1771640930.754368) can0 060F801A#42F0001B00000800
(1771640930.796004) can0 00000461#010E8870000000DA
(1771640930.797456) can0 00000171#0006000000000000
(1771640930.798428) can0 06081F82#1000000100000000
(1771640930.799804) can0 00000171#0106000000000000
(1771640930.800969) can0 060F801A#41F0000143B40BA0
(1771640930.804020) can0 06080F81#0300003000010000
(1771640930.805526) can0 060F8009#42F0003000010000
(1771640930.819572) can0 00000322#D0020000E02535E4
(1771640930.834174) can0 00000212#110E1400100E0000
(1771640930.840886) can0 000001B1#4646070038AD0E00
(1771640930.845118) can0 00000132#000000A3E6850000
(1771640930.854452) can0 06081F82#1000000200000000
(1771640930.855990) can0 060F801A#41F0000200000000
(1771640930.857067) can0 00000462#43608883408B0242
(1771640930.888243) can0 00000402#8500000000000000
(1771640930.889561) can0 00000422#A3000000E90A0000
(1771640930.892118) can0 00000131#00000038AE230000
(1771640930.893465) can0 00000211#0000000023000000
(1771640930.905917) can0 06081F82#1000004000000000
(1771640930.907472) can0 060F801A#42F0004000000000
(1771640930.921083) can0 00000322#D0020000E0C535A7
(1771640930.925035) can0 00000251#6441000000000000
(1771640930.949851) can0 0757F803#0110100001010000
(1771640930.959095) can0 06081F82#1000000100000000
(1771640930.960832) can0 0757F80B#02F0000102030000
(1771640930.961958) can0 060F801A#41F0000143B405C0
(1771640931.015319) can0 06081F82#1000000200000000
(1771640931.016881) can0 060F801A#41F0000200000000
(1771640931.022907) can0 00000322#D0020000E06536B6
(1771640931.040150) can0 00000212#110E1400100E0000
(1771640931.050720) can0 075D000B#10F003C048000000
(1771640931.051843) can0 00000132#000000A5EB860000
(1771640931.066674) can0 06081F82#1000004000000000
(1771640931.068175) can0 060F801A#42F0004000000000
(1771640931.095877) can0 00000461#010E8870000000DA
(1771640931.097190) can0 00000131#00000038B2230000
(1771640931.098562) can0 00000211#0000000023000000
(1771640931.113260) can0 00000222#100E000008054300
(1771640931.114595) can0 00000202#1027140005000000
(1771640931.117860) can0 06081F82#1000000100000000
(1771640931.119383) can0 060F801A#41F0000143B401A0
(1771640931.127744) can0 00000322#D0020000E0053744
(1771640931.155198) can0 00000252#0543110E14000000
(1771640931.166076) can0 00000462#43608883408B0242
(1771640931.171353) can0 06081F82#1000000200000000
(1771640931.172917) can0 060F801A#41F0000200000000
(1771640931.197118) can0 00000172#0006000000000000
(1771640931.198503) can0 00000172#0106000000000000
(1771640931.199461) can0 00000321#07000000007C37C8
(1771640931.209208) can0 000001C2#01005E0100000000
(1771640931.210516) can0 00000232#1027140005000000
(1771640931.218960) can0 00000332#D05740803A0000B4
(1771640931.225110) can0 06081F82#1000004000000000
(1771640931.226633) can0 060F801A#42F0004000000000
(1771640931.229210) can0 00000322#D0020000E0A5375C
(1771640931.231274) can0 000001A2#5A0011000000029B
(1771640931.242272) can0 00000212#110E1400100E0000
(1771640931.253138) can0 00000132#000000A8F6860000
(1771640931.278463) can0 06081F82#1000000100000000
(1771640931.279977) can0 060F801A#41F0000143B3FF40
(1771640931.280898) can0 06081F82#0300002143B40000
(1771640931.282426) can0 060F801A#41F0002143B40000
(1771640931.283365) can0 06081F82#0300001B00000800
(1771640931.284875) can0 060F801A#42F0001B00000800
(1771640931.299861) can0 00000131#00000039B4230000
(1771640931.301205) can0 00000211#0000000023000000
(1771640931.331908) can0 00000251#6441000000000000
(1771640931.332912) can0 06081F82#1000000200000000
(1771640931.334438) can0 060F801A#41F0000200000000
(1771640931.335315) can0 00000322#D0020000E0453832
(1771640931.344864) can0 0757F803#0110100001010000
(1771640931.384171) can0 00090002#0100001B7D000000
(1771640931.386143) can0 06081F82#1000000300000000
(1771640931.387649) can0 060F801A#41F000033D8A0000
(1771640931.402846) can0 00000461#010E8870000000DA
(1771640931.415182) can0 000001B2#84840000A9F81100
(1771640931.435190) can0 00000322#D0020000E0E5382A
(1771640931.439673) can0 06081F82#1000004000000000
(1771640931.441201) can0 060F801A#42F0004000000000
(1771640931.445522) can0 0757F80B#0110000002030000
(1771640931.446648) can0 00000212#110E1400100E0000
(1771640931.455567) can0 00000331#D0471F1E380000A4
(1771640931.457148) can0 00000132#000000AAFA860000
(1771640931.463829) can0 000001A1#5A000F00000001F2
(1771640931.468209) can0 00000462#4360888B408B02F2
(1771640931.494055) can0 06081F82#1000000100000000
(1771640931.495658) can0 060F801A#41F0000143B3FCA0
(1771640931.504989) can0 00000131#0000003AB9230000
(1771640931.506408) can0 00000211#0000000023000000
(1771640931.539590) can0 00000322#D0020000E08539D8
(1771640931.547304) can0 06081F82#1000000200000000
(1771640931.548836) can0 060F801A#41F0000200000000
(1771640931.549790) can0 06080F81#1000004000000000
(1771640931.551340) can0 060F8009#42F0004000400000
(1771640931.559170) can0 00000252#0543110E14000000
(1771640931.598435) can0 06081F82#1000000400000000
(1771640931.599922) can0 060F801A#41F0000442020000
(1771640931.641108) can0 00000322#D0020000E0253AC9
(1771640931.649710) can0 06081F82#1000004000000000
(1771640931.651055) can0 00000212#110E1400100E0000
(1771640931.652191) can0 060F801A#42F0004000000000
(1771640931.662365) can0 00000132#000000ACFE860000
(1771640931.700895) can0 06080F81#1000000400000000
(1771640931.702376) can0 060F8009#41F0000441EB9800
(1771640931.703358) can0 06081F82#1000000100000000
(1771640931.704843) can0 060F801A#41F0000143B3FB60
(1771640931.705776) can0 00000321#07000000008C3AFF
(1771640931.708071) can0 00000461#010E88780000006A
(1771640931.709437) can0 00000131#0000003BBC230000
(1771640931.710786) can0 00000211#0000000023000000
(1771640931.732162) can0 00000251#6441000000000000
(1771640931.733547) can0 00000231#1027D00758020000
(1771640931.735032) can0 00000221#2300000000644100
(1771640931.736500) can0 00000201#1027D00758020000
(1771640931.739853) can0 0757F803#0110100001010000
(1771640931.742491) can0 00000322#D0020000E0C53A8A
(1771640931.755309) can0 06081F82#1000000200000000
(1771640931.756802) can0 060F801A#41F0000200000000
(1771640931.773141) can0 00000462#4360888B408B02F2
(1771640931.797959) can0 00000171#0006000000000000
(1771640931.799453) can0 00000171#0106000000000000
(1771640931.806307) can0 06081F82#1000004000000000
(1771640931.807884) can0 060F801A#42F0004000000000
(1771640931.808789) can0 06081F82#0300002143B40000
(1771640931.810325) can0 060F801A#41F0002143B40000
(1771640931.811268) can0 06081F82#0300001B00000800
(1771640931.812813) can0 060F801A#42F0001B00000800
(1771640931.840518) can0 0757F80B#0110000002030000
(1771640931.841598) can0 000001B1#A8A807003BC40F00
(1771640931.844344) can0 00000322#D0020000E0653B95
(1771640931.854179) can0 00000212#110E1400100E0000
(1771640931.863285) can0 06081F82#1000000100000000
(1771640931.864847) can0 060F801A#41F0000143B3FAE0
(1771640931.865942) can0 00000132#000000AE01860000
(1771640931.872936) can0 000001C1#01005E0100000000
(1771640931.914015) can0 00000131#0000003BC6240000
(1771640931.915033) can0 06081F82#1000000200000000
(1771640931.916413) can0 00000211#0000000023000000
(1771640931.917568) can0 060F801A#41F0000200000000
(1771640931.946060) can0 00000322#D0020000E0053C75
(1771640931.966458) can0 06081F82#1000004000000000
(1771640931.967772) can0 00000252#0543110E14000000
(1771640931.968921) can0 060F801A#42F0004000000000
(1771640931.978124) can0 00090001#0100001B7D000000
(1771640932.008866) can0 00000461#010E88780000006A
(1771640932.019334) can0 06081F82#1000000100000000
(1771640932.020799) can0 060F801A#41F0000143B3FA60
(1771640932.050885) can0 00000322#D0020000E0A53C6D
(1771640932.059179) can0 00000212#110E1400100E0000
(1771640932.070150) can0 00000132#000000B004870000
(1771640932.074979) can0 06081F82#1000000200000000
(1771640932.076477) can0 060F801A#41F0000200000000
(1771640932.081177) can0 00000462#4360888B408B02F2
(1771640932.119919) can0 00000131#0000003BCA240000
(1771640932.121261) can0 00000211#0000000023000000
(1771640932.131330) can0 06081F82#1000004000000000
(1771640932.132689) can0 00000251#6441000000000000
(1771640932.133830) can0 060F801A#42F0004000000000
(1771640932.135006) can0 0757F803#0110100001010000
(1771640932.152631) can0 00000322#D0020000E0453D29
(1771640932.182327) can0 06081F82#1000000100000000
(1771640932.183847) can0 060F801A#41F0000143B3FA60
(1771640932.202135) can0 00000172#0006000000000000
(1771640932.203514) can0 00000172#0106000000000000
(1771640932.204439) can0 00000321#07000000009C3DBD
(1771640932.235543) can0 0757F80B#0110000002030000
(1771640932.236516) can0 06081F82#1000000200000000
(1771640932.238079) can0 060F801A#41F0000200000000
(1771640932.258447) can0 00000322#D0020000E0E53D31
(1771640932.264127) can0 00000212#110E1400100E0000
(1771640932.275203) can0 00000132#000000B209870000
(1771640932.287177) can0 06081F82#1000004000000000
(1771640932.288712) can0 060F801A#42F0004000000000
(1771640932.313865) can0 00000461#010E88780000006A
(1771640932.324948) can0 00000131#0000003CCE240000
(1771640932.326368) can0 00000211#0000000023000000
(1771640932.338644) can0 06081F82#1000000100000000
(1771640932.340173) can0 060F801A#41F0000143B3FA60
(1771640932.341051) can0 06081F82#0300002143B40000
(1771640932.342600) can0 060F801A#41F0002143B40000
(1771640932.343542) can0 06081F82#0300001B00000800
(1771640932.345088) can0 060F801A#42F0001B00000800
(1771640932.362225) can0 00000322#D0020000E0853ECD
(1771640932.376108) can0 00000252#0543CF0EBD000000
(1771640932.387161) can0 00000462#53608889D8AB1730
(1771640932.390154) can0 06081F82#1000000200000000
(1771640932.391668) can0 060F801A#41F0000200000000
(1771640932.392646) can0 06080F81#1000004000000000
(1771640932.397967) can0 060F8009#42F0004000400000
(1771640932.398806) can0 00000332#D0FF82833A00008D
(1771640932.408110) can0 000001A2#5A0012000000023D
(1771640932.419124) can0 000001B2#E8E80000B40D1200
(1771640932.441653) can0 06081F82#1000000300000000
(1771640932.443171) can0 060F801A#41F000033D8A0000
(1771640932.470163) can0 00000212#CF0EBD00100E0000
(1771640932.472115) can0 00000322#D0020000E0253FD2
(1771640932.481174) can0 00000132#000000B50F870000
(1771640932.499373) can0 06081F82#1000004000000000
(1771640932.500935) can0 060F801A#42F0004000000000
(1771640932.526849) can0 00000131#0000003CD0240000
(1771640932.528186) can0 00000211#0000000023000000
(1771640932.529912) can0 0757F803#0110100001010000
(1771640932.538947) can0 00000251#6441000000000000
(1771640932.555055) can0 06081F82#1000000100000000
(1771640932.556568) can0 060F801A#41F0000143B3FA60
(1771640932.573541) can0 00000322#D0020000E0C53F91
(1771640932.606144) can0 06081F82#1000000200000000
(1771640932.607681) can0 060F801A#41F0000200000000
(1771640932.619908) can0 00000461#010E88780000006A
(1771640932.630541) can0 0757F80B#0110000002030000
(1771640932.657409) can0 06081F82#1000000400000000
(1771640932.658922) can0 060F801A#41F0000442020000
(1771640932.672236) can0 00000212#CF0ED300100E0000
(1771640932.675246) can0 00000322#D0020000E06530A4
(1771640932.683210) can0 00000132#000000B711870000
(1771640932.694075) can0 00000462#53608891D86B1A29
(1771640932.705693) can0 00000321#07000000009C309E
(1771640932.711377) can0 06081F82#1000004000000000
(1771640932.712966) can0 060F801A#42F0004000000000
(1771640932.717527) can0 00000332#D05703843A000082
(1771640932.725083) can0 000001A2#5A0013000000025F
(1771640932.730856) can0 00000131#0000003DD4240000
(1771640932.732236) can0 00000211#0000000023000000
(1771640932.767303) can0 06081F82#1000000100000000
(1771640932.768795) can0 060F801A#41F0000143B3FA60
(1771640932.776108) can0 00000252#0543CF0EE9000000
(1771640932.779293) can0 00000322#D0020000E0053156
(1771640932.802905) can0 00000171#0006000000000000
(1771640932.804292) can0 00000171#0106000000000000
(1771640932.818464) can0 06081F82#1000000200000000
(1771640932.819994) can0 060F801A#41F0000200000000
(1771640932.844925) can0 000001B1#090907003DD80F00
(1771640932.869726) can0 06081F82#1000004000000000
(1771640932.871290) can0 060F801A#42F0004000000000
(1771640932.872218) can0 06081F82#0300002143BD8000
(1771640932.873732) can0 060F801A#41F0002143BD8000
(1771640932.874664) can0 06081F82#0300001B00005466
(1771640932.876186) can0 060F801A#42F0001B00005466
(1771640932.877285) can0 00000212#CF0EE900100E0000
(1771640932.883215) can0 00000322#D0020000E0A5314E
(1771640932.888247) can0 00000132#000000BA16870000
(1771640932.921181) can0 06081F82#1000000100000000
(1771640932.922613) can0 060F801A#41F0000143B3FB20
(1771640932.924866) can0 0757F803#0110100001010000
(1771640932.925949) can0 00000461#010E88780000006A
(1771640932.936955) can0 00000131#0000003DDA250000
(1771640932.938430) can0 00000211#0000000023000000
(1771640932.949925) can0 00000251#6441000000000000
(1771640932.957353) can0 00000331#D0471F1E380000A4
(1771640932.960851) can0 000001A1#5A001000000001F0
(1771640932.977921) can0 06081F82#1000000200000000
(1771640932.979398) can0 060F801A#41F00002410A8400
(1771640932.988481) can0 00000322#D0020000E0453204
(1771640932.999215) can0 00000462#53608899D8AB1F6F
(1771640933.025389) can0 0757F80B#011000000203118B
(1771640933.035402) can0 06081F82#1000004000000000
(1771640933.036931) can0 060F801A#42F0004000000000
(1771640933.039202) can0 00000332#D0FFC3843A000045
(1771640933.049447) can0 00000322#D0BA8201E0A53204
(1771640933.050762) can0 000001A2#5A00140000000276
(1771640933.082086) can0 00000212#CF0E1101100E5700
(1771640933.086534) can0 06081F82#1000000100000000
(1771640933.088024) can0 060F801A#41F0000143B41200
(1771640933.093295) can0 00000132#000000BD1A880000
(1771640933.114116) can0 00000222#100E57000A054300
(1771640933.115577) can0 00000202#1027FE005F000000
(1771640933.137976) can0 06081F82#1000000200000000
(1771640933.139487) can0 060F801A#41F0000241A6D400
(1771640933.142112) can0 00000131#0000003EDE250000
(1771640933.143566) can0 00000211#0000000023000000
(1771640933.150907) can0 00000322#D0BA8201E0453340
(1771640933.176172) can0 00000252#0543CF0E11015700
(1771640933.191367) can0 06080F81#1000004000000000
(1771640933.193030) can0 060F8009#42F0004000400000
(1771640933.193895) can0 06081F82#1000004000000000
(1771640933.195648) can0 060F801A#42F0004000000000
(1771640933.207266) can0 00000172#0006000000000000
(1771640933.208709) can0 00000172#0106000000000000
(1771640933.212111) can0 00000321#0700000000AC336E
(1771640933.213926) can0 00000322#D08AC603E0A533CD
(1771640933.220179) can0 000001C2#01005E0100000000
(1771640933.221491) can0 00000232#1027FE005F000000
